  can1  69F   [4]  18 84 70 9F
  can1  14A   [8]  FF FE 14 00 7C FF 02 00
  can1  12E   [8]  C8 7F FE 7F E0 FF FF 00
  can1  14C   [8]  00 05 FF FE 0A A0 80 00
  can1  14D   [8]  3C 00 3C 00 00 00 00 00
  can1  14E   [8]  A8 6A 86 A8 60 00 00 00
  can1  14F   [8]  00 00 FF E0 00 00 00 00
  can1  247   [7]  00 00 FF EF FE 00 0C
  can1  29C   [8]  00 00 00 00 FF FF 00 00
  can1  357   [7]  00 00 00 00 00 00 00
  can1  352   [4]  5C 00 00 00
  can1  17A   [8]  FF FF FF AA 00 C0 31 A3
  can1  186   [7]  19 50 32 03 20 00 20
  can1  1F6   [8]  DE 20 00 32 00 FF 00 FF
  can1  0C2   [7]  80 33 80 00 88 00 44
  can1  14B   [8]  FF E0 00 04 FF FE 00 00
  can1  0C6   [8]  80 33 80 00 7F FF AA A4
  can1  212   [6]  FE 1D C0 4C FF FF
  can1  634   [3]  80 00 52
  can1  1F8   [8]  43 04 80 1F FE 00 0E 0D
  can1  17E   [8]  FF FF FF 00 FF 40 00 FF
  can1  18A   [6]  FF F0 00 06 40 00
  can1  638   [6]  50 03 C1 60 00 00
  can1  130   [8]  00 68 6F FE 00 9F FE 8D
  can1  14A   [8]  FF FE 14 00 7C FF 03 00
  can1  12E   [8]  C8 7F FE 7F D0 FF FF 00
  can1  14C   [8]  00 05 FF FE 0A A0 80 00
  can1  14D   [8]  3C 00 3C 00 00 00 00 00
  can1  14E   [8]  A8 6A 86 A8 60 00 00 00
  can1  14F   [8]  00 00 FF E0 00 00 00 00
  can1  29A   [8]  00 00 00 00 00 00 0B F4
  can1  2B7   [5]  00 E0 FF FE 94
  can1  500   [5]  02 6A 7D 33 7F
  can1  17A   [8]  FF FF FF AA 00 C0 31 A3
  can1  14B   [8]  FF E0 00 05 FF FE 00 00
  can1  0C2   [7]  80 33 80 00 89 00 43
  can1  0C6   [8]  80 33 80 00 7F FF AC A2
  can1  186   [7]  19 50 32 03 20 00 20
  can1  242   [7]  00 00 FF EF FE 00 0C
  can1  1FD   [8]  1A 40 07 FF 7F C8 50 00
  can1  1F6   [8]  DE 20 00 32 00 FF 00 FF
  can1  1F8   [8]  51 04 80 1F FE 00 00 0D
  can1  17E   [8]  FF FF FF 00 FF 40 00 FF
  can1  18A   [6]  FF F0 00 06 40 00
  can1  439   [2]  3E 80
  can1  3F7   [2]  08 10
  can1  130   [8]  00 88 6F FE 00 9F FE 6D
  can1  14A   [8]  FF FE 14 00 7C FF 04 00
  can1  12E   [8]  C8 7F FE 7F D0 FF FF 00
  can1  14C   [8]  00 05 FF FE 0A A0 80 00
  can1  14D   [8]  3C 00 3C 00 00 00 00 00
  can1  14E   [8]  A8 6A 86 A8 60 00 00 00
  can1  14F   [8]  00 00 FF E0 00 00 00 00
  can1  247   [7]  00 00 FF EF FE 00 0C
  can1  29C   [8]  00 00 00 00 FF FF 00 00
  can1  357   [7]  00 00 00 00 00 00 00
  can1  354   [8]  00 00 00 00 00 00 00 00
  can1  17A   [8]  FF FF FF AA 00 C0 31 A3
  can1  186   [7]  19 50 32 03 20 00 20
  can1  66A   [6]  00 FE 00 00 00 00
  can1  0C2   [7]  80 33 80 00 8A 00 42
  can1  14B   [8]  FF E0 00 06 FF FE 00 00
  can1  0C6   [8]  80 33 80 00 7F FF AE A0
  can1  1F6   [8]  DE 20 00 32 00 FF 00 FF
  can1  212   [6]  FE 1D C0 4C FF FF
  can1  653   [4]  00 59 58 00
  can1  1F8   [8]  4F 04 80 1F FE 00 02 0D
  can1  17E   [8]  FF FF FF 00 FF 40 00 FF
  can1  18A   [6]  FF F0 00 06 40 00
  can1  652   [8]  40 0F FF 15 40 7D 55 51
  can1  5DA   [7]  3C FF 00 FF FF FF FF
  can1  130   [8]  00 A8 6F FE 00 9F FE 4D
  can1  14A   [8]  FF FE 14 00 7C FF 05 00
  can1  12E   [8]  C8 7F FF 7F D0 FF FF 00
  can1  14C   [8]  00 05 FF FE 0A A1 80 00
  can1  14D   [8]  3C 00 3C 00 00 00 00 00
  can1  14E   [8]  A8 6A 86 A8 60 00 00 00
  can1  14F   [8]  00 00 FF E0 00 00 00 00
  can1  29A   [8]  00 00 00 00 00 00 0C F3
  can1  2B7   [5]  00 E0 FF FE 94
  can1  5E9   [8]  00 38 00 00 00 08 00 02
  can1  657   [2]  C4 C4
  can1  17A   [8]  FF FF FF AA 00 C0 31 A3
  can1  0C2   [7]  80 33 80 00 8B 00 41
  can1  14B   [8]  FF E0 00 07 FF FE 00 00
  can1  0C6   [8]  80 33 80 00 7F FF B0 9E
  can1  186   [7]  19 50 32 03 20 00 20
  can1  242   [7]  00 00 FF EF FE 00 0C
  can1  1F6   [8]  DE 20 00 32 00 FF 00 FF
  can1  1F8   [8]  4D 04 80 1F FE 00 04 0D
  can1  17E   [8]  FF FF FF 00 FF 40 00 FF
  can1  18A   [6]  FF F0 00 06 40 00
  can1  391   [6]  00 00 80 00 C0 00
  can1  650   [6]  41 55 C4 16 C0 28
  can1  130   [8]  00 C8 6F FE 00 9F FE 2D
  can1  12E   [8]  C8 7F FF 7F D0 FF FF 00
  can1  14A   [8]  FF FE 14 00 7C FF 06 00
  can1  14C   [8]  00 05 FF FE 0A A3 80 00
  can1  14D   [8]  3C 00 3C 00 00 00 00 00
  can1  14E   [8]  A8 6A 86 A8 60 00 00 00
  can1  14F   [8]  00 00 FF E0 00 00 00 00
  can1  247   [7]  00 00 FF EF FE 00 0C
  can1  29C   [8]  00 00 00 00 FF FF 00 00
  can1  357   [7]  00 00 00 00 00 00 00
  can1  352   [4]  5C 00 00 00
  can1  17A   [8]  FF FF FF AA 00 C0 31 A3
  can1  186   [7]  19 50 32 03 20 00 20
  can1  427   [8]  97 FF FF C7 FF 07 21 90
  can1  0C2   [7]  80 33 80 00 8C 00 40
  can1  14B   [8]  FF E0 00 08 FF FE 00 00
  can1  0C6   [8]  80 33 80 00 7F FF B2 9C
  can1  1F6   [8]  DE 20 00 32 00 FF 00 FF
  can1  212   [6]  FE 1D C0 4C FF FF
  can1  1F8   [8]  4B 04 80 1F FE 00 06 0D
  can1  17E   [8]  FF FF FF 00 FF 40 00 FF
  can1  18A   [6]  FF F0 00 06 40 00
  can1  130   [8]  00 E8 6F FE 00 9F FE 0D
  can1  12E   [8]  C7 7F FF 7F E0 FF FF 00
  can1  14A   [8]  FF FE 14 00 7C FF 07 00
  can1  14C   [8]  00 05 FF FE 0A A1 80 00
  can1  14D   [8]  3C 00 3C 00 00 00 00 00
  can1  14E   [8]  A8 6A 86 A8 60 00 00 00
  can1  14F   [8]  00 00 FF E0 00 00 00 00
  can1  29A   [8]  00 00 00 00 00 00 0D F2
  can1  2B7   [5]  00 E0 FF FE 94
  can1  5D7   [7]  00 00 00 0B 3A 30 C0
  can1  5EF   [3]  00 80 00
  can1  35C   [8]  F4 C6 22 2B 2D 3F 62 28
  can1  17A   [8]  FF FF FF AA 00 C0 31 A3
  can1  186   [7]  19 50 32 03 20 00 20
  can1  0C2   [7]  80 33 80 00 8D 00 3F
  can1  42E   [8]  5D 27 D0 DD A4 07 80 83
  can1  552   [2]  01 04
  can1  1F6   [8]  DE 20 00 32 00 FF 00 FF
  can1  5DE   [8]  00 0A 00 00 01 00 00 50
  can1  62C   [1]  00
  can1  14B   [8]  FF E0 00 09 FF FE 00 00
  can1  0C6   [8]  80 33 80 00 7F FF B4 9A
  can1  242   [7]  00 00 FF EF FE 00 0C
  can1  563   [2]  0E BC
  can1  1F8   [8]  49 04 80 1F FE 00 08 0D
  can1  17E   [8]  FF FF FF 00 FF 40 00 FF
  can1  18A   [6]  FF F0 00 06 40 00
  can1  130   [8]  00 08 6F FE 00 9F FE ED
  can1  12E   [8]  C7 7F FF 7F E0 FF FF 00
  can1  14A   [8]  FF FE 14 00 7C FF 08 00
  can1  14C   [8]  00 05 FF FE 0A A0 80 00
  can1  14D   [8]  3C 00 3C 00 00 00 00 00
  can1  14E   [8]  A8 6A 86 A8 60 00 00 00
  can1  14F   [8]  00 00 FF E0 00 00 00 00
  can1  247   [7]  00 00 FF EF FE 00 0C
  can1  29C   [8]  00 00 00 00 FF FF 00 00
  can1  357   [7]  00 00 00 00 00 00 00
  can1  354   [8]  00 00 00 00 00 00 00 00
  can1  66D   [2]  AA 80
  can1  17A   [8]  FF FF FF AA 00 C0 31 A3
  can1  5EE   [8]  00 00 02 19 55 80 00 90
  can1  186   [7]  19 50 32 03 20 00 20
  can1  0C2   [7]  80 33 80 00 8E 00 3E
  can1  14B   [8]  FF E0 00 0A FF FE 00 00
  can1  0C6   [8]  80 33 80 00 7F FF B6 98
  can1  1F6   [8]  DE 20 00 32 00 FF 00 FF
  can1  212   [6]  FE 1D C0 4C FF FF
  can1  218   [1]  9C
  can1  4FA   [2]  00 00
  can1  671   [2]  40 00
  can1  6F8   [5]  4C 10 DA AA FF
  can1  511   [7]  00 19 AD DA 5C 74 48
  can1  1F8   [8]  47 04 80 1F FE 00 0A 0D
  can1  17E   [8]  FF FF FF 00 FF 40 00 FF
  can1  18A   [6]  FF F0 00 06 40 00
  can1  130   [8]  00 28 6F FE 00 9F FE CD
  can1  14A   [8]  FF FE 14 00 7C FF 09 00
  can1  12E   [8]  C8 7F FE 7F F0 FF FF 00
  can1  14C   [8]  00 05 FF FE 0A A0 80 00
  can1  14D   [8]  3C 00 3C 00 00 00 00 00
  can1  14E   [8]  A8 6A 86 A8 60 00 00 00
  can1  14F   [8]  00 00 FF E0 00 00 00 00
  can1  29A   [8]  00 00 00 00 00 00 0E F1
  can1  2B7   [5]  00 E0 FF FE 94
  can1  666   [4]  30 00 00 00
  can1  17A   [8]  FF FF FF AA 00 C0 31 A3
  can1  0C2   [7]  80 33 80 00 8F 00 3D
  can1  14B   [8]  FF E0 00 0B FF FE 00 00
  can1  0C6   [8]  80 33 80 00 7F FF B8 96
  can1  186   [7]  19 50 32 03 20 00 20
  can1  1F6   [8]  DE 20 00 32 00 FF 00 FF
  can1  242   [7]  00 00 FF EF FE 00 0C
  can1  68B   [2]  F2 00
  can1  4F8   [5]  48 10 00 00 00
  can1  1F8   [8]  45 04 80 1F FE 00 0C 0D
  can1  17E   [8]  FF FF FF 00 FF 40 00 FF
  can1  18A   [6]  FF F0 00 06 40 00
  can1  3F7   [2]  08 10
  can1  130   [8]  00 48 6F FE 00 9F FE AD
  can1  14A   [8]  FF FE 14 00 7C FF 0A 00
  can1  12E   [8]  C8 7F FE 7F F0 FF FF 00
  can1  14C   [8]  00 05 FF FE 0A A0 80 00
  can1  14D   [8]  3C 00 3C 00 00 00 00 00
  can1  14E   [8]  A8 6A 86 A8 60 00 00 00
  can1  14F   [8]  00 00 FF E0 00 00 00 00
  can1  247   [7]  00 00 FF EF FE 00 0C
  can1  29C   [8]  00 00 00 00 FF FF 00 00
  can1  357   [7]  00 00 00 00 00 00 00
  can1  352   [4]  5C 00 00 00
  can1  5DF   [1]  A8
  can1  17A   [8]  FF FF FF AA 00 C0 31 A3
  can1  186   [7]  19 50 32 03 20 00 20
  can1  14B   [8]  FF E0 00 0C FF FE 00 00
  can1  0C2   [7]  80 33 80 00 80 00 4C
  can1  0C6   [8]  80 33 80 00 7F FF BA 94
  can1  1F6   [8]  DE 20 00 32 00 FF 00 FF
  can1  212   [6]  FE 1D C0 4C FF FF
  can1  1F8   [8]  43 04 80 1F FE 00 0E 0D
  can1  17E   [8]  FF FF FF 00 FF 40 00 FF
  can1  391   [6]  00 00 80 00 C0 00
  can1  18A   [6]  FF F0 00 06 40 00
  can1  42A   [8]  02 71 00 36 6A 00 E0 00
  can1  430   [8]  00 00 00 18 A0 95 A5 60
  can1  130   [8]  00 68 6F FE 00 9F FE 8D
  can1  14A   [8]  FF FE 14 00 7C FF 0B 00
  can1  12E   [8]  C8 7F FE 7F F0 FF FF 00
  can1  14C   [8]  00 05 FF FE 0A A0 80 00
  can1  14D   [8]  3C 00 3C 00 00 00 00 00
  can1  14E   [8]  A8 6A 86 A8 60 00 00 00
  can1  14F   [8]  00 00 FF E0 00 00 00 00
  can1  29A   [8]  00 00 00 00 00 00 0F F0
  can1  2B7   [5]  00 E0 FF FE 94
  can1  668   [2]  42 06
  can1  17A   [8]  FF FF FF AA 00 C0 31 A3
  can1  14B   [8]  FF E0 00 0D FF FE 00 00
  can1  0C2   [7]  80 33 80 00 81 00 4B
  can1  0C6   [8]  80 33 80 00 7F FF BC 92
  can1  186   [7]  19 50 32 03 20 00 20
  can1  242   [7]  00 00 FF EF FE 00 0C
  can1  65B   [6]  00 00 00 80 21 04
  can1  1F6   [8]  DE 20 00 32 00 FF 00 FF
  can1  1F8   [8]  51 04 80 1F FE 00 00 0D
  can1  17E   [8]  FF FF FF 00 FF 40 00 FF
  can1  18A   [6]  FF F0 00 06 40 00
  can1  432   [8]  50 40 02 0B CC 40 00 58
  can1  656   [8]  07 FF 07 FE FF C0 39 00
  can1  3B7   [5]  FF FF 16 4F FE
  can1  130   [8]  00 88 6F FE 00 9F FE 6D
  can1  12E   [8]  C8 7F FE 7F F0 FF FF 00
  can1  14A   [8]  FF FE 14 00 7C FF 0C 00
  can1  14C   [8]  00 05 FF FE 0A A0 80 00
  can1  14D   [8]  3C 00 3C 00 00 00 00 00
  can1  14E   [8]  A8 6A 86 A8 60 00 00 00
  can1  14F   [8]  00 00 FF E0 00 00 00 00
  can1  247   [7]  00 00 FF EF FE 00 0C
  can1  29C   [8]  00 00 00 00 FF FF 00 00
  can1  357   [7]  00 00 00 00 00 00 00
  can1  354   [8]  00 00 00 00 00 00 00 00
  can1  17A   [8]  FF FF FF AA 00 C0 31 A3
  can1  186   [7]  19 50 32 03 20 00 20
  can1  1F6   [8]  DE 20 00 32 00 FF 00 FF
  can1  0C2   [7]  80 33 80 00 82 00 4A
  can1  14B   [8]  FF E0 00 0E FF FE 00 00
  can1  0C6   [8]  80 33 80 00 7F FF BE 90
  can1  212   [6]  FE 1D C0 4C FF FF
  can1  634   [3]  80 00 52
  can1  1F8   [8]  4F 04 80 1F FE 00 02 0D
  can1  17E   [8]  FF FF FF 00 FF 40 00 FF
  can1  18A   [6]  FF F0 00 06 40 00
  can1  638   [6]  50 03 C1 60 00 00
  can1  130   [8]  00 A8 6F FE 00 9F FE 4D
  can1  14A   [8]  FF FE 14 00 7C FF 0D 00
  can1  12E   [8]  C7 7F FE 7F E0 FF FF 00
  can1  14C   [8]  00 05 FF FE 0A A0 80 00
  can1  14D   [8]  3C 00 3C 00 00 00 00 00
  can1  14E   [8]  A8 6A 86 A8 60 00 00 00
  can1  14F   [8]  00 00 FF E0 00 00 00 00
  can1  29A   [8]  00 00 00 00 00 00 00 FF
  can1  2B7   [5]  00 E0 FF FE 94
  can1  500   [5]  02 94 5B E6 2A
  can1  17A   [8]  FF FF FF AA 00 C0 31 A3
  can1  0C2   [7]  80 33 80 00 83 00 49
  can1  14B   [8]  FF E0 00 0F FF FE 00 00
  can1  0C6   [8]  80 33 80 00 7F FF A0 AE
  can1  186   [7]  19 50 32 03 20 00 20
  can1  242   [7]  00 00 FF EF FE 00 0C
  can1  1FD   [8]  19 40 07 FF 7F C8 50 00
  can1  1F6   [8]  DE 20 00 32 00 FF 00 FF
  can1  1F8   [8]  4D 04 80 1F FE 00 04 0D
  can1  17E   [8]  FF FF FF 00 FF 40 00 FF
  can1  18A   [6]  FF F0 00 06 40 00
  can1  439   [2]  3E 80
  can1  130   [8]  00 C8 6F FE 00 9F FE 2D
  can1  12E   [8]  C7 7F FE 7F E0 FF FF 00
  can1  14A   [8]  FF FE 14 00 7C FF 0E 00
  can1  14C   [8]  00 05 FF FE 0A A0 80 00
  can1  14D   [8]  3C 00 3C 00 00 00 00 00
  can1  14E   [8]  A8 6A 86 A8 60 00 00 00
  can1  14F   [8]  00 00 FF E0 00 00 00 00
  can1  247   [7]  00 00 FF EF FE 00 0C
  can1  29C   [8]  00 00 00 00 FF FF 00 00
  can1  357   [7]  00 00 00 00 00 00 00
  can1  352   [4]  5C 00 00 00
  can1  17A   [8]  FF FF FF AA 00 C0 31 A3
  can1  186   [7]  19 50 32 03 20 00 20
  can1  66A   [6]  00 FE 00 00 00 00
  can1  0C2   [7]  80 33 80 00 84 00 48
  can1  14B   [8]  FF E0 00 00 FF FE 00 00
  can1  0C6   [8]  80 33 80 00 7F FF A2 AC
  can1  1F6   [8]  DE 20 00 32 00 FF 00 FF
  can1  212   [6]  FE 1D C0 4C FF FF
  can1  653   [4]  00 59 58 00
  can1  1F8   [8]  4B 04 80 1F FE 00 06 0D
  can1  17E   [8]  FF FF FF 00 FF 40 00 FF
  can1  18A   [6]  FF F0 00 06 40 00
  can1  652   [8]  40 0F FF 15 40 7D 55 51
  can1  5DA   [7]  3C FF 00 FF FF FF FF
  can1  130   [8]  00 E8 6F FE 00 9F FE 0D
  can1  12E   [8]  C8 7F FF 7F D0 FF FF 00
  can1  14A   [8]  FF FE 14 00 7C FF 0F 00
  can1  14C   [8]  00 05 FF FE 0A A0 80 00
  can1  14D   [8]  3C 00 3C 00 00 00 00 00
  can1  14E   [8]  A8 6A 86 A8 60 00 00 00
  can1  14F   [8]  00 00 FF E0 00 00 00 00
  can1  29A   [8]  00 00 00 00 00 00 01 FE
  can1  2B7   [5]  00 E0 FF FE 94
  can1  5E9   [8]  00 38 00 00 00 08 00 02
  can1  657   [2]  C4 C4
  can1  17A   [8]  FF FF FF AA 00 C0 31 A3
  can1  14B   [8]  FF E0 00 01 FF FE 00 00
  can1  0C2   [7]  80 33 80 00 85 00 47
  can1  0C6   [8]  80 33 80 00 7F FF A4 AA
  can1  186   [7]  19 50 32 03 20 00 20
  can1  242   [7]  00 00 FF EF FE 00 0C
  can1  654   [8]  00 00 00 3C FF C1 6A 9C
  can1  1F6   [8]  DE 20 00 32 00 FF 00 FF
  can1  1F8   [8]  49 04 80 1F FE 00 08 0D
  can1  17E   [8]  FF FF FF 00 FF 40 00 FF
  can1  18A   [6]  FF F0 00 06 40 00
  can1  391   [6]  00 00 80 00 C0 00
  can1  3F7   [2]  08 10
  can1  650   [6]  41 55 C4 16 C0 28
  can1  130   [8]  00 08 6F FE 00 9F FE ED
  can1  14A   [8]  FF FE 14 00 7C FF 00 00
  can1  12E   [8]  C8 7F FF 7F D0 FF FF 00
  can1  14C   [8]  00 05 FF FE 0A A0 80 00
  can1  14D   [8]  3C 00 3C 00 00 00 00 00
  can1  14E   [8]  A8 6A 86 A8 60 00 00 00
  can1  14F   [8]  00 00 FF E0 00 00 00 00
  can1  247   [7]  00 00 FF EF FE 00 0C
  can1  29C   [8]  00 00 00 00 FF FF 00 00
  can1  357   [7]  00 00 00 00 00 00 00
  can1  354   [8]  00 00 00 00 00 00 00 00
  can1  17A   [8]  FF FF FF AA 00 C0 31 A3
  can1  186   [7]  19 50 32 03 20 00 20
  can1  14B   [8]  FF E0 00 02 FF FE 00 00
  can1  0C2   [7]  80 33 80 00 86 00 46
  can1  0C6   [8]  80 33 80 00 7F FF A6 A8
  can1  212   [6]  FE 1D C0 4C FF FF
  can1  427   [8]  97 FF FF C7 FF 07 21 90
  can1  1F6   [8]  DE 20 00 32 00 FF 00 FF
  can1  1F8   [8]  47 04 80 1F FE 00 0A 0D
  can1  17E   [8]  FF FF FF 00 FF 40 00 FF
  can1  18A   [6]  FF F0 00 06 40 00
  can1  130   [8]  00 28 6F FE 00 9F FE CD
  can1  14A   [8]  FF FE 14 00 7C FF 01 00
  can1  12E   [8]  C8 7F FF 7F E0 FF FF 00
  can1  14C   [8]  00 05 FF FE 0A A0 80 00
  can1  14D   [8]  3C 00 3C 00 00 00 00 00
  can1  14E   [8]  A8 6A 86 A8 60 00 00 00
  can1  14F   [8]  00 00 FF E0 00 00 00 00
  can1  29A   [8]  00 00 00 00 00 00 02 FD
  can1  2B7   [5]  00 E0 FF FE 94
  can1  5D7   [7]  00 00 00 0B 3A 30 C0
  can1  5EF   [3]  00 80 00
  can1  35C   [8]  F4 C6 22 2B 2D 3F 62 28
  can1  552   [2]  01 04
  can1  17A   [8]  FF FF FF AA 00 C0 31 A3
  can1  0C2   [7]  80 33 80 00 87 00 45
  can1  186   [7]  19 50 32 03 20 00 20
  can1  5DE   [8]  00 0A 00 00 01 00 00 50
  can1  42E   [8]  5D 27 D0 DD A4 07 80 83
  can1  1F6   [8]  DE 20 00 32 00 FF 00 FF
  can1  62C   [1]  00
  can1  14B   [8]  FF E0 00 03 FF FE 00 00
  can1  0C6   [8]  80 33 80 00 7F FF A8 A6
  can1  242   [7]  00 00 FF EF FE 00 0C
  can1  563   [2]  00 2C
  can1  1F8   [8]  45 04 80 1F FE 00 0C 0D
  can1  17E   [8]  FF FF FF 00 FF 40 00 FF
  can1  18A   [6]  FF F0 00 06 40 00
  can1  130   [8]  00 48 6F FE 00 9F FE AD
  can1  12E   [8]  C8 7F FF 7F E0 FF FF 00
  can1  14A   [8]  FF FE 14 00 7C FF 02 00
  can1  14C   [8]  00 05 FF FE 0A A0 80 00
  can1  14D   [8]  3C 00 3C 00 00 00 00 00
  can1  14E   [8]  A8 6A 86 A8 60 00 00 00
  can1  14F   [8]  00 00 FF E0 00 00 00 00
  can1  247   [7]  00 00 FF EF FE 00 0C
  can1  29C   [8]  00 00 00 00 FF FF 00 00
  can1  357   [7]  00 00 00 00 00 00 00
  can1  352   [4]  5C 00 00 00
  can1  66D   [2]  AA 80
  can1  5EE   [8]  00 00 02 19 55 80 00 90
  can1  17A   [8]  FF FF FF AA 00 C0 31 A3
  can1  186   [7]  19 50 32 03 20 00 20
  can1  14B   [8]  FF E0 00 04 FF FE 00 00
  can1  0C2   [7]  80 33 80 00 88 00 44
  can1  0C6   [8]  80 33 80 00 7F FF AA A4
  can1  1F6   [8]  DE 20 00 32 00 FF 00 FF
  can1  212   [6]  FE 1D C0 4C FF FF
  can1  218   [1]  9C
  can1  4FA   [2]  00 00
  can1  671   [2]  40 00
  can1  6F8   [5]  4C 10 DA AA FF
  can1  511   [7]  00 58 76 93 C7 81 2B
  can1  1F8   [8]  43 04 80 1F FE 00 0E 0D
  can1  17E   [8]  FF FF FF 00 FF 40 00 FF
  can1  18A   [6]  FF F0 00 06 40 00
  can1  130   [8]  00 68 6F FE 00 9F FE 8D
  can1  14A   [8]  FF FE 14 00 7C FF 03 00
  can1  12E   [8]  C8 7F FE 7F F0 FF FF 00
  can1  14C   [8]  00 05 FF FE 0A A0 80 02
  can1  14D   [8]  3C 00 3C 00 00 00 00 00
  can1  14E   [8]  A8 6A 86 A8 60 00 00 00
  can1  14F   [8]  00 00 FF E0 00 00 00 00
  can1  29A   [8]  00 00 00 00 00 00 03 FC
  can1  2B7   [5]  00 E0 FF FE 94
  can1  666   [4]  30 00 00 00
  can1  17A   [8]  FF FF FF AA 00 C0 31 A3
  can1  0C2   [7]  80 33 80 00 89 00 43
  can1  14B   [8]  FF E0 00 05 FF FE 00 00
  can1  0C6   [8]  80 33 80 00 7F FF AC A2
  can1  186   [7]  19 50 32 03 20 00 20
  can1  1F6   [8]  DE 20 00 32 00 FF 00 FF
  can1  242   [7]  00 00 FF EF FE 00 0C
  can1  68B   [2]  F2 00
  can1  4F8   [5]  48 10 00 00 00
  can1  1F8   [8]  51 04 80 1F FE 00 00 0D
  can1  17E   [8]  FF FF FF 00 FF 40 00 FF
  can1  18A   [6]  FF F0 00 06 40 00
  can1  130   [8]  00 88 6F FE 00 9F FE 6D
  can1  12E   [8]  C8 7F FE 7F F0 FF FF 00
  can1  14A   [8]  FF FE 14 00 7C FF 04 00
  can1  14C   [8]  00 05 FF FE 0A A0 80 00
  can1  14D   [8]  3C 00 3C 00 00 00 00 00
  can1  14E   [8]  A8 6A 86 A8 60 00 00 00
  can1  14F   [8]  00 00 FF E0 00 00 00 00
  can1  247   [7]  00 00 FF EF FE 00 0C
  can1  29C   [8]  00 00 00 00 FF FF 00 00
  can1  357   [7]  00 00 00 00 00 00 00
  can1  354   [8]  00 00 00 00 00 00 00 00
  can1  5DF   [1]  A8
  can1  17A   [8]  FF FF FF AA 00 C0 31 A3
  can1  186   [7]  19 50 32 03 20 00 20
  can1  14B   [8]  FF E0 00 06 FF FE 00 00
  can1  0C2   [7]  80 33 80 00 8A 00 42
  can1  0C6   [8]  80 33 80 00 7F FF AE A0
  can1  1F6   [8]  DE 20 00 32 00 FF 00 FF
  can1  212   [6]  FE 1D C0 4C FF FF
  can1  1F8   [8]  4F 04 80 1F FE 00 02 0D
  can1  17E   [8]  FF FF FF 00 FF 40 00 FF
  can1  391   [6]  00 00 80 00 C0 00
  can1  18A   [6]  FF F0 00 06 40 00
  can1  42A   [8]  02 71 00 36 6A 00 E0 00
  can1  430   [8]  00 00 00 18 A0 95 A5 70
  can1  130   [8]  00 A8 6F FE 00 9F FE 4D
  can1  14A   [8]  FF FE 14 00 7C FF 05 00
  can1  12E   [8]  C9 7F FE 7F E0 FF FF 00
  can1  14C   [8]  00 05 FF FE 0A A0 80 00
  can1  14D   [8]  3C 00 3C 00 00 00 00 00
  can1  14E   [8]  A8 6A 86 A8 60 00 00 00
  can1  14F   [8]  00 00 FF E0 00 00 00 00
  can1  29A   [8]  00 00 00 00 00 00 04 FB
  can1  2B7   [5]  00 E0 FF FE 94
  can1  668   [2]  42 06
  can1  17A   [8]  FF FF FF AA 00 C0 31 A3
  can1  0C2   [7]  80 33 80 00 8B 00 41
  can1  14B   [8]  FF E0 00 07 FF FE 00 00
  can1  0C6   [8]  80 33 80 00 7F FF B0 9E
  can1  186   [7]  19 50 32 03 20 00 20
  can1  242   [7]  00 00 FF EF FE 00 0C
  can1  65B   [6]  00 00 00 80 21 04
  can1  1F6   [8]  DE 20 00 32 00 FF 00 FF
  can1  1F8   [8]  4D 04 80 1F FE 00 04 0D
  can1  17E   [8]  FF FF FF 00 FF 40 00 FF
  can1  18A   [6]  FF F0 00 06 40 00
  can1  432   [8]  50 40 02 0B CC 40 00 58
  can1  3F7   [2]  08 10
  can1  656   [8]  07 FF 07 FE FF C0 39 00
  can1  130   [8]  00 C8 6F FE 00 9F FE 2D
  can1  12E   [8]  C9 7F FE 7F E0 FF FF 00
  can1  14A   [8]  FF FE 14 00 7C FF 06 00
  can1  14C   [8]  00 05 FF FE 0A A0 80 00
  can1  14D   [8]  3C 00 3C 00 00 00 00 00
  can1  14E   [8]  A8 6A 86 A8 60 00 00 00
  can1  14F   [8]  00 00 FF E0 00 00 00 00
  can1  247   [7]  00 00 FF EF FE 00 0C
  can1  29C   [8]  00 00 00 00 FF FF 00 00
  can1  357   [7]  00 00 00 00 00 00 00
  can1  352   [4]  5C 00 00 00
  can1  17A   [8]  FF FF FF AA 00 C0 31 A3
  can1  186   [7]  19 50 32 03 20 00 20
  can1  637   [7]  00 00 00 00 C8 00 10
  can1  0C2   [7]  80 33 80 00 8C 00 40
  can1  14B   [8]  FF E0 00 08 FF FE 00 00
  can1  0C6   [8]  80 33 80 00 7F FF B2 9C
  can1  1F6   [8]  DE 20 00 32 00 FF 00 FF
  can1  212   [6]  FE 1D C0 4C FF FF
  can1  3B7   [5]  FF FF 16 4F FE
  can1  634   [3]  80 00 52
  can1  1F8   [8]  4B 04 80 1F FE 00 06 0D
  can1  17E   [8]  FF FF FF 00 FF 40 00 FF
  can1  18A   [6]  FF F0 00 06 40 00
  can1  638   [6]  50 03 C1 60 00 00
  can1  130   [8]  00 E8 6F FE 00 9F FE 0D
  can1  14A   [8]  FF FE 14 00 7C FF 07 00
  can1  12E   [8]  C8 7F FF 7F D0 FF FF 00
  can1  14C   [8]  00 05 FF FE 0A A0 80 00
  can1  14D   [8]  3C 00 3C 00 00 00 00 00
  can1  14E   [8]  A8 6A 86 A8 60 00 00 00
  can1  14F   [8]  00 00 FF E0 00 00 00 00
  can1  29A   [8]  00 00 00 00 00 00 05 FA
  can1  2B7   [5]  00 E0 FF FE 94
  can1  500   [5]  02 1C F3 EA A9
  can1  17A   [8]  FF FF FF AA 00 C0 31 A3
  can1  0C2   [7]  80 33 80 00 8D 00 3F
  can1  14B   [8]  FF E0 00 09 FF FE 00 00
  can1  0C6   [8]  80 33 80 00 7F FF B4 9A
  can1  186   [7]  19 50 32 03 20 00 20
  can1  242   [7]  00 00 FF EF FE 00 0C
  can1  1FD   [8]  19 40 07 FF 7F C8 50 00
  can1  62D   [4]  DE E5 80 00
  can1  1F6   [8]  DE 20 00 32 00 FF 00 FF
  can1  1F8   [8]  49 04 80 1F FE 00 08 0D
  can1  17E   [8]  FF FF FF 00 FF 40 00 FF
  can1  18A   [6]  FF F0 00 06 40 00
  can1  439   [2]  3E 80
  can1  130   [8]  00 08 6F FE 00 9F FE ED
  can1  14A   [8]  FF FE 14 00 7C FF 08 00
  can1  12E   [8]  C8 7F FF 7F D0 FF FF 00
  can1  14C   [8]  00 05 FF FE 0A A0 80 00
  can1  14D   [8]  3C 00 3C 00 00 00 00 00
  can1  14E   [8]  A8 6A 86 A8 60 00 00 00
  can1  14F   [8]  00 00 FF E0 00 00 00 00
  can1  247   [7]  00 00 FF EF FE 00 0C
  can1  29C   [8]  00 00 00 00 FF FF 00 00
  can1  357   [7]  00 00 00 00 00 00 00
  can1  354   [8]  00 00 00 00 00 00 00 00
  can1  17A   [8]  FF FF FF AA 00 C0 31 A3
  can1  186   [7]  19 50 32 03 20 00 20
  can1  66A   [6]  00 FE 00 00 00 00
  can1  0C2   [7]  80 33 80 00 8E 00 3E
  can1  14B   [8]  FF E0 00 0A FF FE 00 00
  can1  0C6   [8]  80 33 80 00 7F FF B6 98
  can1  1F6   [8]  DE 20 00 32 00 FF 00 FF
  can1  212   [6]  FE 1D C0 4C FF FF
  can1  653   [4]  00 59 58 00
  can1  1F8   [8]  47 04 80 1F FE 00 0A 0D
  can1  17E   [8]  FF FF FF 00 FF 40 00 FF
  can1  18A   [6]  FF F0 00 06 40 00
  can1  652   [8]  40 0F FF 15 40 7D 55 51
  can1  5DA   [7]  3C FF 00 FF FF FF FF
  can1  130   [8]  00 28 6F FE 00 9F FE CD
  can1  14A   [8]  FF FE 14 00 7C FF 09 00
  can1  12E   [8]  C8 7F FF 7F E0 FF FF 00
  can1  14C   [8]  00 05 FF FE 0A A0 80 00
  can1  14D   [8]  3C 00 3C 00 00 00 00 00
  can1  14E   [8]  A8 6A 86 A8 60 00 00 00
  can1  14F   [8]  00 00 FF E0 00 00 00 00
  can1  29A   [8]  00 00 00 00 00 00 06 F9
  can1  2B7   [5]  00 E0 FF FE 94
  can1  5E9   [8]  00 38 00 00 00 08 00 02
  can1  657   [2]  C4 C4
  can1  17A   [8]  FF FF FF AA 00 C0 31 A3
  can1  14B   [8]  FF E0 00 0B FF FE 00 00
  can1  0C2   [7]  80 33 80 00 8F 00 3D
  can1  0C6   [8]  80 33 80 00 7F FF B8 96
  can1  186   [7]  19 50 32 03 20 00 20
  can1  1F6   [8]  DE 20 00 32 00 FF 00 FF
  can1  242   [7]  00 00 FF EF FE 00 0C
  can1  1F8   [8]  45 04 80 1F FE 00 0C 0D
  can1  17E   [8]  FF FF FF 00 FF 40 00 FF
  can1  18A   [6]  FF F0 00 06 40 00
  can1  391   [6]  00 00 80 00 C0 00
  can1  650   [6]  41 55 C4 16 C0 28
  can1  130   [8]  00 48 6F FE 00 9F FE AD
  can1  12E   [8]  C8 7F FF 7F E0 FF FF 00
  can1  14A   [8]  FF FE 14 00 7C FF 0A 00
  can1  14C   [8]  00 05 FF FE 0A A0 80 01
  can1  14D   [8]  3C 00 3C 00 00 00 00 00
  can1  14E   [8]  A8 6A 86 A8 60 00 00 00
  can1  14F   [8]  00 00 FF E0 00 00 00 00
  can1  247   [7]  00 00 FF EF FE 00 0C
  can1  29C   [8]  00 00 00 00 FF FF 00 00
  can1  357   [7]  00 00 00 00 00 00 00
  can1  352   [4]  5C 00 00 00
  can1  17A   [8]  FF FF FF AA 00 C0 31 A3
  can1  186   [7]  19 50 32 03 20 00 20
  can1  427   [8]  97 FF FF C7 FF 07 21 90
  can1  0C2   [7]  80 33 80 00 80 00 4C
  can1  14B   [8]  FF E0 00 0C FF FE 00 00
  can1  0C6   [8]  80 33 80 00 7F FF BA 94
  can1  1F6   [8]  DE 20 00 32 00 FF 00 FF
  can1  212   [6]  FE 1D C0 4C FF FF
  can1  1F8   [8]  43 04 80 1F FE 00 0E 0D
  can1  17E   [8]  FF FF FF 00 FF 40 00 FF
  can1  18A   [6]  FF F0 00 06 40 00
  can1  130   [8]  00 68 6F FE 00 9F FE 8D
  can1  12E   [8]  C8 7F FE 7F F0 FF FF 00
  can1  14A   [8]  FF FE 14 00 7C FF 0B 00
  can1  14C   [8]  00 05 FF FE 0A A0 80 03
  can1  14D   [8]  3C 00 3C 00 00 00 00 00
  can1  14E   [8]  A8 6A 86 A8 60 00 00 00
  can1  14F   [8]  00 00 FF E0 00 00 00 00
  can1  29A   [8]  00 00 00 00 00 00 07 F8
  can1  2B7   [5]  00 E0 FF FE 94
  can1  5D7   [7]  00 00 00 0B 3A 30 C0
  can1  5EF   [3]  00 80 00
  can1  35C   [8]  F4 C6 22 2B 2D 3F 62 28
  can1  552   [2]  01 04
  can1  17A   [8]  FF FF FF AA 00 C0 31 A3
  can1  0C2   [7]  80 33 80 00 81 00 4B
  can1  186   [7]  19 50 32 03 20 00 20
  can1  5DE   [8]  00 0A 00 00 01 00 00 50
  can1  42E   [8]  5D 27 D0 DD A4 07 80 83
  can1  1F6   [8]  DE 20 00 32 00 FF 00 FF
  can1  62C   [1]  00
  can1  14B   [8]  FF E0 00 0D FF FE 00 00
  can1  0C6   [8]  80 33 80 00 7F FF BC 92
  can1  242   [7]  00 00 FF EF FE 00 0C
  can1  563   [2]  2B DC
  can1  1F8   [8]  51 04 80 1F FE 00 00 0D
  can1  17E   [8]  FF FF FF 00 FF 40 00 FF
  can1  18A   [6]  FF F0 00 06 40 00
  can1  3F7   [2]  08 10
  can1  12E   [8]  C8 7F FE 7F F0 FF FF 00
  can1  130   [8]  00 88 6F FE 00 9F FE 6D
  can1  14A   [8]  FF FE 14 00 7C FF 0C 00
  can1  14C   [8]  00 05 FF FE 0A A1 80 00
  can1  14D   [8]  3C 00 3C 00 00 00 00 00
  can1  14E   [8]  A8 6A 86 A8 60 00 00 00
  can1  14F   [8]  00 00 FF E0 00 00 00 00
  can1  247   [7]  00 00 FF EF FE 00 0C
  can1  29C   [8]  00 00 00 00 FF FF 00 00
  can1  357   [7]  00 00 00 00 00 00 00
  can1  354   [8]  00 00 00 00 00 00 00 00
  can1  66D   [2]  AA 80
  can1  5EE   [8]  00 00 02 19 55 80 00 90
  can1  17A   [8]  FF FF FF AA 00 C0 31 A3
  can1  186   [7]  19 50 32 03 20 00 20
  can1  14B   [8]  FF E0 00 0E FF FE 00 00
  can1  0C2   [7]  80 33 80 00 82 00 4A
  can1  0C6   [8]  80 33 80 00 7F FF BE 90
  can1  1F6   [8]  DE 20 00 32 00 FF 00 FF
  can1  212   [6]  FE 1D C0 4C FF FF
  can1  218   [1]  9C
  can1  4FA   [2]  00 00
  can1  671   [2]  40 00
  can1  6F8   [5]  4C 10 DA AA FF
  can1  511   [7]  00 97 3F 4C 32 8E 0E
  can1  1F8   [8]  4F 04 80 1F FE 00 02 0D
  can1  17E   [8]  FF FF FF 00 FF 40 00 FF
  can1  18A   [6]  FF F0 00 06 40 00
  can1  130   [8]  00 A8 6F FE 00 9F FE 4D
  can1  14A   [8]  FF FE 14 00 7C FF 0D 00
  can1  12E   [8]  C8 7F FE 7F E0 FF FF 00
  can1  14C   [8]  00 05 FF FE 0A A1 80 00
  can1  14D   [8]  3C 00 3C 00 00 00 00 00
  can1  14E   [8]  A8 6A 86 A8 60 00 00 00
  can1  14F   [8]  00 00 FF E0 00 00 00 00
  can1  29A   [8]  00 00 00 00 00 00 08 F7
  can1  2B7   [5]  00 E0 FF FE 94
  can1  666   [4]  30 00 00 00
  can1  17A   [8]  FF FF FF AA 00 C0 31 A3
  can1  14B   [8]  FF E0 00 0F FF FE 00 00
  can1  0C2   [7]  80 33 80 00 83 00 49
  can1  0C6   [8]  80 33 80 00 7F FF A0 AE
  can1  186   [7]  19 50 32 03 20 00 20
  can1  1F6   [8]  DE 20 00 32 00 FF 00 FF
  can1  242   [7]  00 00 FF EF FE 00 0C
  can1  68B   [2]  F2 00
  can1  4F8   [5]  48 10 00 00 00
  can1  1F8   [8]  4D 04 80 1F FE 00 04 0D
  can1  17E   [8]  FF FF FF 00 FF 40 00 FF
  can1  18A   [6]  FF F0 00 06 40 00
  can1  130   [8]  00 C8 6F FE 00 9F FE 2D
  can1  14A   [8]  FF FE 14 00 7C FF 0E 00
  can1  12E   [8]  C8 7F FE 7F E0 FF FF 00
  can1  14C   [8]  00 05 FF FE 0A A1 80 00
  can1  14D   [8]  3C 00 3C 00 00 00 00 00
  can1  14E   [8]  A8 6A 86 A8 60 00 00 00
  can1  14F   [8]  00 00 FF E0 00 00 00 00
  can1  247   [7]  00 00 FF EF FE 00 0C
  can1  29C   [8]  00 00 00 00 FF FF 00 00
  can1  357   [7]  00 00 00 00 00 00 00
  can1  352   [4]  5C 00 00 00
  can1  5DF   [1]  A8
  can1  17A   [8]  FF FF FF AA 00 C0 31 A3
  can1  186   [7]  19 50 32 03 20 00 20
  can1  1F6   [8]  DE 20 00 32 00 FF 00 FF
  can1  0C2   [7]  80 33 80 00 84 00 48
  can1  14B   [8]  FF E0 00 00 FF FE 00 00
  can1  0C6   [8]  80 33 80 00 7F FF A2 AC
  can1  212   [6]  FE 1D C0 4C FF FF
  can1  1F8   [8]  4B 04 80 1F FE 00 06 0D
  can1  17E   [8]  FF FF FF 00 FF 40 00 FF
  can1  18A   [6]  FF F0 00 06 40 00
  can1  391   [6]  00 00 80 00 C0 00
  can1  42A   [8]  02 71 00 36 6A 00 E0 00
  can1  430   [8]  00 00 00 18 A0 95 A5 70
  can1  668   [2]  42 06
  can1  130   [8]  00 E8 6F FE 00 9F FE 0D
  can1  12E   [8]  C8 7F FF 7F D0 FF FF 00
  can1  14A   [8]  FF FE 14 00 7C FF 0F 00
  can1  14C   [8]  00 05 FF FE 0A A0 80 00
  can1  14D   [8]  3C 00 3C 00 00 00 00 00
  can1  14E   [8]  A8 6A 86 A8 60 00 00 00
  can1  14F   [8]  00 00 FF E0 00 00 00 00
  can1  29A   [8]  00 00 00 00 00 00 09 F6
  can1  2B7   [5]  00 E0 FF FE 94
  can1  17A   [8]  FF FF FF AA 00 C0 31 A3
  can1  14B   [8]  FF E0 00 01 FF FE 00 00
  can1  0C2   [7]  80 33 80 00 85 00 47
  can1  0C6   [8]  80 33 80 00 7F FF A4 AA
  can1  186   [7]  19 50 32 03 20 00 20
  can1  242   [7]  00 00 FF EF FE 00 0C
  can1  65B   [6]  00 00 00 80 21 04
  can1  1F6   [8]  DE 20 00 32 00 FF 00 FF
  can1  1F8   [8]  49 04 80 1F FE 00 08 0D
  can1  17E   [8]  FF FF FF 00 FF 40 00 FF
  can1  18A   [6]  FF F0 00 06 40 00
  can1  432   [8]  50 40 02 0B CC 40 00 58
  can1  130   [8]  00 08 6F FE 00 9F FE ED
  can1  14A   [8]  FF FE 14 00 7C FF 00 00
  can1  12E   [8]  C8 7F FF 7F D0 FF FF 00
  can1  14C   [8]  00 05 FF FE 0A A1 80 00
  can1  14D   [8]  3C 00 3C 00 00 00 00 00
  can1  14E   [8]  A8 6A 86 A8 60 00 00 00
  can1  14F   [8]  00 00 FF E0 00 00 00 00
  can1  247   [7]  00 00 FF EF FE 00 0C
  can1  29C   [8]  00 00 00 00 FF FF 00 00
  can1  357   [7]  00 00 00 00 00 00 00
  can1  354   [8]  00 00 00 00 00 00 00 00
  can1  656   [8]  07 FF 07 FE FF C0 39 00
  can1  3B7   [5]  FF FF 16 4F FE
  can1  433   [4]  00 00 7F 00
  can1  17A   [8]  FF FF FF AA 00 C0 31 A3
  can1  186   [7]  19 50 32 03 20 00 20
  can1  1F6   [8]  DE 20 00 32 00 FF 00 FF
  can1  0C2   [7]  80 33 80 00 86 00 46
  can1  14B   [8]  FF E0 00 02 FF FE 00 00
  can1  0C6   [8]  80 33 80 00 7F FF A6 A8
  can1  212   [6]  FE 1D C0 4C FF FF
  can1  634   [3]  80 00 52
  can1  1F8   [8]  47 04 80 1F FE 00 0A 0D
  can1  17E   [8]  FF FF FF 00 FF 40 00 FF
  can1  18A   [6]  FF F0 00 06 40 00
  can1  638   [6]  50 03 C1 60 00 00
  can1  130   [8]  00 28 6F FE 00 9F FE CD
  can1  14A   [8]  FF FE 14 00 7C FF 01 00
  can1  12E   [8]  C8 7F FF 7F E0 FF FF 00
  can1  14C   [8]  00 05 FF FE 0A A0 80 00
  can1  14D   [8]  3C 00 3C 00 00 00 00 00
  can1  14E   [8]  A8 6A 86 A8 60 00 00 00
  can1  14F   [8]  00 00 FF E0 00 00 00 00
  can1  29A   [8]  00 00 00 00 00 00 0A F5
  can1  2B7   [5]  00 E0 FF FE 94
  can1  68C   [6]  07 FF 02 A0 03 FF
  can1  500   [5]  02 76 F9 A9 B6
  can1  17A   [8]  FF FF FF AA 00 C0 31 A3
  can1  14B   [8]  FF E0 00 03 FF FE 00 00
  can1  0C2   [7]  80 33 80 00 87 00 45
  can1  0C6   [8]  80 33 80 00 7F FF A8 A6
  can1  186   [7]  19 50 32 03 20 00 20
  can1  242   [7]  00 00 FF EF FE 00 0C
  can1  1FD   [8]  1A 40 07 FF 7F C8 50 00
  can1  1F6   [8]  DE 20 00 32 00 FF 00 FF
  can1  1F8   [8]  45 04 80 1F FE 00 0C 0D
  can1  17E   [8]  FF FF FF 00 FF 40 00 FF
  can1  18A   [6]  FF F0 00 06 40 00
  can1  439   [2]  3E 80
  can1  3F7   [2]  08 10
  can1  130   [8]  00 48 6F FE 00 9F FE AD
  can1  12E   [8]  C8 7F FF 7F E0 FF FF 00
  can1  14A   [8]  FF FE 14 00 7C FF 02 00
  can1  14C   [8]  00 05 FF FE 0A A0 80 00
  can1  14D   [8]  3C 00 3C 00 00 00 00 00
  can1  14E   [8]  A8 6A 86 A8 60 00 00 00
  can1  14F   [8]  00 00 FF E0 00 00 00 00
  can1  247   [7]  00 00 FF EF FE 00 0C
  can1  29C   [8]  00 00 00 00 FF FF 00 00
  can1  357   [7]  00 00 00 00 00 00 00
  can1  352   [4]  5C 00 00 00
  can1  17A   [8]  FF FF FF AA 00 C0 31 A3
  can1  186   [7]  19 50 32 03 20 00 20
  can1  66A   [6]  00 FE 00 00 00 00
  can1  14B   [8]  FF E0 00 04 FF FE 00 00
  can1  0C2   [7]  80 33 80 00 88 00 44
  can1  0C6   [8]  80 33 80 00 7F FF AA A4
  can1  1F6   [8]  DE 20 00 32 00 FF 00 FF
  can1  212   [6]  FE 1D C0 4C FF FF
  can1  653   [4]  00 59 58 00
  can1  646   [8]  42 A7 03 9B 84 E2 00 70
  can1  1F8   [8]  43 04 80 1F FE 00 0E 0D
  can1  17E   [8]  FF FF FF 00 FF 40 00 FF
  can1  18A   [6]  FF F0 00 06 40 00
  can1  652   [8]  40 0F FF 15 40 7D 55 51
  can1  5DA   [7]  3C FF 00 FF FF FF FF
  can1  130   [8]  00 68 6F FE 00 9F FE 8D
  can1  12E   [8]  C8 7F FF 7F F0 FF FF 00
  can1  14A   [8]  FF FE 14 00 7C FF 03 00
  can1  14C   [8]  00 05 FF FE 0A A0 80 00
  can1  14D   [8]  3C 00 3C 00 00 00 00 00
  can1  14E   [8]  A8 6A 86 A8 60 00 00 00
  can1  14F   [8]  00 00 FF E0 00 00 00 00
  can1  29A   [8]  00 00 00 00 00 00 0B F4
  can1  2B7   [5]  00 E0 FF FE 94
  can1  5E9   [8]  00 38 00 00 00 08 00 02
  can1  657   [2]  C4 C4
  can1  17A   [8]  FF FF FF AA 00 C0 31 A3
  can1  14B   [8]  FF E0 00 05 FF FE 00 00
  can1  0C2   [7]  80 33 80 00 89 00 43
  can1  0C6   [8]  80 33 80 00 7F FF AC A2
  can1  186   [7]  19 50 32 03 20 00 20
  can1  1F6   [8]  DE 20 00 32 00 FF 00 FF
  can1  242   [7]  00 00 FF EF FE 00 0C
  can1  1F8   [8]  51 04 80 1F FE 00 00 0D
  can1  17E   [8]  FF FF FF 00 FF 40 00 FF
  can1  18A   [6]  FF F0 00 06 40 00
  can1  391   [6]  00 00 80 00 C0 00
  can1  650   [6]  41 55 C4 16 C0 28
  can1  130   [8]  00 88 6F FE 00 9F FE 6D
  can1  12E   [8]  C8 7F FF 7F F0 FF FF 00
  can1  14A   [8]  FF FE 14 00 7C FF 04 00
  can1  14C   [8]  00 05 FF FE 0A A0 80 00
  can1  14D   [8]  3C 00 3C 00 00 00 00 00
  can1  14E   [8]  A8 6A 86 A8 60 00 00 00
  can1  14F   [8]  00 00 FF E0 00 00 00 00
  can1  247   [7]  00 00 FF EF FE 00 0C
  can1  29C   [8]  00 00 00 00 FF FF 00 00
  can1  357   [7]  00 00 00 00 00 00 00
  can1  354   [8]  00 00 00 00 00 00 00 00
  can1  17A   [8]  FF FF FF AA 00 C0 31 A3
  can1  186   [7]  19 50 32 03 20 00 20
  can1  427   [8]  97 FF FF C7 FF 07 21 90
  can1  0C2   [7]  80 33 80 00 8A 00 42
  can1  14B   [8]  FF E0 00 06 FF FE 00 00
  can1  0C6   [8]  80 33 80 00 7F FF AE A0
  can1  1F6   [8]  DE 20 00 32 00 FF 00 FF
  can1  212   [6]  FE 1D C0 4C FF FF
  can1  1F8   [8]  4F 04 80 1F FE 00 02 0D
  can1  17E   [8]  FF FF FF 00 FF 40 00 FF
  can1  18A   [6]  FF F0 00 06 40 00
  can1  130   [8]  00 A8 6F FE 00 9F FE 4D
  can1  14A   [8]  FF FE 14 00 7C FF 05 00
  can1  12E   [8]  C9 7F FE 7F F0 FF FF 00
  can1  14C   [8]  00 05 FF FE 0A A0 80 00
  can1  14D   [8]  3C 00 3C 00 00 00 00 00
  can1  14E   [8]  A8 6A 86 A8 60 00 00 00
  can1  14F   [8]  00 00 FF E0 00 00 00 00
  can1  29A   [8]  00 00 00 00 00 00 0C F3
  can1  2B7   [5]  00 E0 FF FE 94
  can1  5D7   [7]  00 00 00 0B 3A 30 C0
  can1  5EF   [3]  00 80 00
  can1  35C   [8]  F4 C6 22 2B 2D 3F 62 28
  can1  552   [2]  01 04
  can1  17A   [8]  FF FF FF AA 00 C0 31 A3
  can1  5DE   [8]  00 0A 00 00 01 00 00 50
  can1  0C2   [7]  80 33 80 00 8B 00 41
  can1  186   [7]  19 50 32 03 20 00 20
  can1  62C   [1]  00
  can1  14B   [8]  FF E0 00 07 FF FE 00 00
  can1  0C6   [8]  80 33 80 00 7F FF B0 9E
  can1  242   [7]  00 00 FF EF FE 00 0C
  can1  42E   [8]  5D 27 D0 DD A4 07 80 83
  can1  563   [2]  28 CC
  can1  1F6   [8]  DE 20 00 32 00 FF 00 FF
  can1  1F8   [8]  4D 04 80 1F FE 00 04 0D
  can1  17E   [8]  FF FF FF 00 FF 40 00 FF
  can1  18A   [6]  FF F0 00 06 40 00
  can1  130   [8]  00 C8 6F FE 00 9F FE 2D
  can1  12E   [8]  C9 7F FE 7F F0 FF FF 00
  can1  14A   [8]  FF FE 14 00 7C FF 06 00
  can1  14C   [8]  00 05 FF FE 0A A0 80 00
  can1  14D   [8]  3C 00 3C 00 00 00 00 00
  can1  14E   [8]  A8 6A 86 A8 60 00 00 00
  can1  14F   [8]  00 00 FF E0 00 00 00 00
  can1  247   [7]  00 00 FF EF FE 00 0C
  can1  29C   [8]  00 00 00 00 FF FF 00 00
  can1  357   [7]  00 00 00 00 00 00 00
  can1  352   [4]  5C 00 00 00
  can1  66D   [2]  AA 80
  can1  5EE   [8]  00 00 02 19 55 80 00 90
  can1  17A   [8]  FF FF FF AA 00 C0 31 A3
  can1  186   [7]  19 50 32 03 20 00 20
  can1  14B   [8]  FF E0 00 08 FF FE 00 00
  can1  0C2   [7]  80 33 80 00 8C 00 40
  can1  0C6   [8]  80 33 80 00 7F FF B2 9C
  can1  1F6   [8]  DE 20 00 32 00 FF 00 FF
  can1  212   [6]  FE 1D C0 4C FF FF
  can1  218   [1]  9C
  can1  4FA   [2]  00 00
  can1  671   [2]  40 00
  can1  6F8   [5]  4C 10 DA AA FF
  can1  511   [7]  00 D6 08 05 9D 9B F1
  can1  1F8   [8]  4B 04 80 1F FE 00 06 0D
  can1  17E   [8]  FF FF FF 00 FF 40 00 FF
  can1  18A   [6]  FF F0 00 06 40 00
  can1  130   [8]  00 E8 6F FE 00 9F FE 0D
  can1  14A   [8]  FF FE 14 00 7C FF 07 00
  can1  12E   [8]  C8 7F FF 7F F0 FF FF 00
  can1  14C   [8]  00 05 FF FE 0A A0 80 00
  can1  14D   [8]  3C 00 3C 00 00 00 00 00
  can1  14E   [8]  A8 6A 86 A8 60 00 00 00
  can1  14F   [8]  00 00 FF E0 00 00 00 00
  can1  29A   [8]  00 00 00 00 00 00 0D F2
  can1  2B7   [5]  00 E0 FF FE 94
  can1  666   [4]  30 00 00 00
  can1  17A   [8]  FF FF FF AA 00 C0 31 A3
  can1  14B   [8]  FF E0 00 09 FF FE 00 00
  can1  0C2   [7]  80 33 80 00 8D 00 3F
  can1  0C6   [8]  80 33 80 00 7F FF B4 9A
  can1  186   [7]  19 50 32 03 20 00 20
  can1  1F6   [8]  DE 20 00 32 00 FF 00 FF
  can1  242   [7]  00 00 FF EF FE 00 0C
  can1  68B   [2]  F2 00
  can1  1F8   [8]  49 04 80 1F FE 00 08 0D
  can1  17E   [8]  FF FF FF 00 FF 40 00 FF
  can1  18A   [6]  FF F0 00 06 40 00
  can1  3F7   [2]  08 10
  can1  130   [8]  00 08 6F FE 00 9F FE ED
  can1  12E   [8]  C8 7F FF 7F F0 FF FF 00
  can1  14A   [8]  FF FE 14 00 7C FF 08 00
  can1  14C   [8]  00 05 FF FE 0A A0 80 00
  can1  14D   [8]  3C 00 3C 00 00 00 00 00
  can1  14E   [8]  A8 6A 86 A8 60 00 00 00
  can1  14F   [8]  00 00 FF E0 00 00 00 00
  can1  247   [7]  00 00 FF EF FE 00 0C
  can1  29C   [8]  00 00 00 00 FF FF 00 00
  can1  357   [7]  00 00 00 00 00 00 00
  can1  354   [8]  00 00 00 00 00 00 00 00
  can1  4F8   [5]  48 10 00 00 00
  can1  5DF   [1]  A8
  can1  17A   [8]  FF FF FF AA 00 C0 31 A3
  can1  186   [7]  19 50 32 03 20 00 20
  can1  1F6   [8]  DE 20 00 32 00 FF 00 FF
  can1  0C2   [7]  80 33 80 00 8E 00 3E
  can1  14B   [8]  FF E0 00 0A FF FE 00 00
  can1  0C6   [8]  80 33 80 00 7F FF B6 98
  can1  212   [6]  FE 1D C0 4C FF FF
  can1  1F8   [8]  47 04 80 1F FE 00 0A 0D
  can1  17E   [8]  FF FF FF 00 FF 40 00 FF
  can1  18A   [6]  FF F0 00 06 40 00
  can1  391   [6]  00 00 80 00 C0 00
  can1  42A   [8]  02 71 00 36 6A 00 E0 00
  can1  430   [8]  00 00 00 18 A0 95 A5 70
  can1  668   [2]  42 06
  can1  130   [8]  00 28 6F FE 00 9F FE CD
  can1  12E   [8]  C8 7F FF 7F F0 FF FF 00
  can1  14A   [8]  FF FE 14 00 7C FF 09 00
  can1  14C   [8]  00 05 FF FE 0A A0 80 00
  can1  14D   [8]  3C 00 3C 00 00 00 00 00
  can1  14E   [8]  A8 6A 86 A8 60 00 00 00
  can1  14F   [8]  00 00 FF E0 00 00 00 00
  can1  29A   [8]  00 00 00 00 00 00 0E F1
  can1  2B7   [5]  00 E0 FF FE 94
  can1  17A   [8]  FF FF FF AA 00 C0 31 A3
  can1  14B   [8]  FF E0 00 0B FF FE 00 00
  can1  0C2   [7]  80 33 80 00 8F 00 3D
  can1  0C6   [8]  80 33 80 00 7F FF B8 96
  can1  186   [7]  19 50 32 03 20 00 20
  can1  242   [7]  00 00 FF EF FE 00 0C
  can1  65B   [6]  00 00 00 80 21 04
  can1  1F6   [8]  DE 20 00 32 00 FF 00 FF
  can1  1F8   [8]  45 04 80 1F FE 00 0C 0D
  can1  17E   [8]  FF FF FF 00 FF 40 00 FF
  can1  18A   [6]  FF F0 00 06 40 00
  can1  432   [8]  50 40 02 0B CC 40 00 58
  can1  130   [8]  00 48 6F FE 00 9F FE AD
  can1  12E   [8]  C8 7F FF 7F F0 FF FF 00
  can1  14A   [8]  FF FE 14 00 7C FF 0A 00
  can1  14C   [8]  00 05 FF FE 0A A0 80 00
  can1  14D   [8]  3C 00 3C 00 00 00 00 00
  can1  14E   [8]  A8 6A 86 A8 60 00 00 00
  can1  14F   [8]  00 00 FF E0 00 00 00 00
  can1  247   [7]  00 00 FF EF FE 00 0C
  can1  29C   [8]  00 00 00 00 FF FF 00 00
  can1  357   [7]  00 00 00 00 00 00 00
  can1  352   [4]  5C 00 00 00
  can1  656   [8]  07 FF 07 FE FF C0 39 00
  can1  3B7   [5]  FF FF 16 4F FE
  can1  17A   [8]  FF FF FF AA 00 C0 31 A3
  can1  186   [7]  19 50 32 03 20 00 20
  can1  1F6   [8]  DE 20 00 32 00 FF 00 FF
  can1  0C2   [7]  80 33 80 00 80 00 4C
  can1  14B   [8]  FF E0 00 0C FF FE 00 00
  can1  0C6   [8]  80 33 80 00 7F FF BA 94
  can1  212   [6]  FE 1D C0 4C FF FF
  can1  634   [3]  80 00 52
  can1  1F8   [8]  43 04 80 1F FE 00 0E 0D
  can1  17E   [8]  FF FF FF 00 FF 40 00 FF
  can1  18A   [6]  FF F0 00 06 40 00
  can1  638   [6]  50 03 C1 60 00 00
  can1  130   [8]  00 68 6F FE 00 9F FE 8D
  can1  12E   [8]  C8 7F FF 7F E0 FF FF 00
  can1  14A   [8]  FF FE 14 00 7C FF 0B 00
  can1  14C   [8]  00 05 FF FE 0A A0 80 00
  can1  14D   [8]  3C 00 3C 00 00 00 00 00
  can1  14E   [8]  A8 6A 86 A8 60 00 00 00
  can1  14F   [8]  00 00 FF E0 00 00 00 00
  can1  29A   [8]  00 00 00 00 00 00 0F F0
  can1  2B7   [5]  00 E0 FF FE 94
  can1  500   [5]  02 58 DD 09 A1
  can1  17A   [8]  FF FF FF AA 00 C0 31 A3
  can1  14B   [8]  FF E0 00 0D FF FE 00 00
  can1  0C2   [7]  80 33 80 00 81 00 4B
  can1  0C6   [8]  80 33 80 00 7F FF BC 92
  can1  186   [7]  19 50 32 03 20 00 20
  can1  242   [7]  00 00 FF EF FE 00 0C
  can1  1FD   [8]  1A 40 07 FF 7F C8 50 00
  can1  1F6   [8]  DE 20 00 32 00 FF 00 FF
  can1  1F8   [8]  51 04 80 1F FE 00 00 0D
  can1  17E   [8]  FF FF FF 00 FF 40 00 FF
  can1  18A   [6]  FF F0 00 06 40 00
  can1  439   [2]  3E 80
  can1  130   [8]  00 88 6F FE 00 9F FE 6D
  can1  12E   [8]  C8 7F FF 7F E0 FF FF 00
  can1  14A   [8]  FF FE 14 00 7C FF 0C 00
  can1  14C   [8]  00 05 FF FE 0A A0 80 00
  can1  14D   [8]  3C 00 3C 00 00 00 00 00
  can1  14E   [8]  A8 6A 86 A8 60 00 00 00
  can1  14F   [8]  00 00 FF E0 00 00 00 00
  can1  247   [7]  00 00 FF EF FE 00 0C
  can1  29C   [8]  00 00 00 00 FF FF 00 00
  can1  357   [7]  00 00 00 00 00 00 00
  can1  354   [8]  00 00 00 00 00 00 00 00
  can1  17A   [8]  FF FF FF AA 00 C0 31 A3
  can1  186   [7]  19 50 32 03 20 00 20
  can1  66A   [6]  00 FE 00 00 00 00
  can1  0C2   [7]  80 33 80 00 82 00 4A
  can1  14B   [8]  FF E0 00 0E FF FE 00 00
  can1  0C6   [8]  80 33 80 00 7F FF BE 90
  can1  1F6   [8]  DE 20 00 32 00 FF 00 FF
  can1  212   [6]  FE 1D C0 4C FF FF
  can1  653   [4]  00 59 58 00
  can1  1F8   [8]  4F 04 80 1F FE 00 02 0D
  can1  17E   [8]  FF FF FF 00 FF 40 00 FF
  can1  18A   [6]  FF F0 00 06 40 00
  can1  652   [8]  40 0F FF 15 40 7D 55 51
  can1  5DA   [7]  3C FF 00 FF FF FF FF
  can1  130   [8]  00 A8 6F FE 00 9F FE 4D
  can1  14A   [8]  FF FE 14 00 7C FF 0D 00
  can1  12E   [8]  C8 7F FF 7F E0 FF FF 00
  can1  14C   [8]  00 05 FF FE 0A A0 80 01
  can1  14D   [8]  3C 00 3C 00 00 00 00 00
  can1  14E   [8]  A8 6A 86 A8 60 00 00 00
  can1  14F   [8]  00 00 FF E0 00 00 00 00
  can1  29A   [8]  00 00 00 00 00 00 00 FF
  can1  2B7   [5]  00 E0 FF FE 94
  can1  5E9   [8]  00 38 00 00 00 08 00 02
  can1  657   [2]  C4 C4
  can1  17A   [8]  FF FF FF AA 00 C0 31 A3
  can1  0C2   [7]  80 33 80 00 83 00 49
  can1  14B   [8]  FF E0 00 0F FF FE 00 00
  can1  0C6   [8]  80 33 80 00 7F FF A0 AE
  can1  186   [7]  19 50 32 03 20 00 20
  can1  1F6   [8]  DE 20 00 32 00 FF 00 FF
  can1  242   [7]  00 00 FF EF FE 00 0C
  can1  1F8   [8]  4D 04 80 1F FE 00 04 0D
  can1  17E   [8]  FF FF FF 00 FF 40 00 FF
  can1  18A   [6]  FF F0 00 06 40 00
  can1  391   [6]  00 00 80 00 C0 00
  can1  3F7   [2]  08 10
  can1  650   [6]  41 55 C4 16 C0 28
  can1  130   [8]  00 C8 6F FE 00 9F FE 2D
  can1  14A   [8]  FF FE 14 00 7C FF 0E 00
  can1  12E   [8]  C8 7F FF 7F E0 FF FF 00
  can1  14C   [8]  00 05 FF FE 0A A0 80 00
  can1  14D   [8]  3C 00 3C 00 00 00 00 00
  can1  14E   [8]  A8 6A 86 A8 60 00 00 00
  can1  14F   [8]  00 00 FF E0 00 00 00 00
  can1  247   [7]  00 00 FF EF FE 00 0C
  can1  29C   [8]  00 00 00 00 FF FF 00 00
  can1  357   [7]  00 00 00 00 00 00 00
  can1  352   [4]  5C 00 00 00
  can1  17A   [8]  FF FF FF AA 00 C0 31 A3
  can1  186   [7]  19 50 32 03 20 00 20
  can1  427   [8]  97 FF FF C7 FF 07 21 90
  can1  0C2   [7]  80 33 80 00 84 00 48
  can1  14B   [8]  FF E0 00 00 FF FE 00 00
  can1  0C6   [8]  80 33 80 00 7F FF A2 AC
  can1  1F6   [8]  DE 20 00 32 00 FF 00 FF
  can1  212   [6]  FE 1D C0 4C FF FF
  can1  1F8   [8]  4B 04 80 1F FE 00 06 0D
  can1  17E   [8]  FF FF FF 00 FF 40 00 FF
  can1  18A   [6]  FF F0 00 06 40 00
  can1  130   [8]  00 E8 6F FE 00 9F FE 0D
  can1  14A   [8]  FF FE 14 00 7C FF 0F 00
  can1  12E   [8]  C8 7F FE 7F E0 FF FF 00
  can1  14C   [8]  00 05 FF FE 0A A0 80 00
  can1  14D   [8]  3C 00 3C 00 00 00 00 00
  can1  14E   [8]  A8 6A 86 A8 60 00 00 00
  can1  14F   [8]  00 00 FF E0 00 00 00 00
  can1  29A   [8]  00 00 00 00 00 00 01 FE
  can1  2B7   [5]  00 E0 FF FE 94
  can1  5D7   [7]  00 00 00 0B 3A 30 C0
  can1  5EF   [3]  00 80 00
  can1  35C   [8]  F4 C6 22 2B 2D 3F 62 28
  can1  552   [2]  01 04
  can1  17A   [8]  FF FF FF AA 00 C0 31 A3
  can1  5DE   [8]  00 0A 00 00 01 00 00 50
  can1  0C2   [7]  80 33 80 00 85 00 47
  can1  186   [7]  19 50 32 03 20 00 20
  can1  42E   [8]  5D 27 D0 DD A4 07 80 83
  can1  1F6   [8]  DE 20 00 32 00 FF 00 FF
  can1  62C   [1]  00
  can1  14B   [8]  FF E0 00 01 FF FE 00 00
  can1  0C6   [8]  80 33 80 00 7F FF A4 AA
  can1  242   [7]  00 00 FF EF FE 00 0C
  can1  563   [2]  31 FC
  can1  1F8   [8]  49 04 80 1F FE 00 08 0D
  can1  17E   [8]  FF FF FF 00 FF 40 00 FF
  can1  18A   [6]  FF F0 00 06 40 00
  can1  130   [8]  00 08 6F FE 00 9F FE ED
  can1  12E   [8]  C8 7F FE 7F E0 FF FF 00
  can1  14A   [8]  FF FE 14 00 7C FF 00 00
  can1  14C   [8]  00 05 FF FE 0A A0 80 00
  can1  14D   [8]  3C 00 3C 00 00 00 00 00
  can1  14E   [8]  A8 6A 86 A8 60 00 00 00
  can1  14F   [8]  00 00 FF E0 00 00 00 00
  can1  247   [7]  00 00 FF EF FE 00 0C
  can1  29C   [8]  00 00 00 00 FF FF 00 00
  can1  357   [7]  00 00 00 00 00 00 00
  can1  354   [8]  00 00 00 00 00 00 00 00
  can1  66D   [2]  AA 80
  can1  5EE   [8]  00 00 02 19 55 80 00 90
  can1  17A   [8]  FF FF FF AA 00 C0 31 A3
  can1  186   [7]  19 50 32 03 20 00 20
  can1  14B   [8]  FF E0 00 02 FF FE 00 00
  can1  0C2   [7]  80 33 80 00 86 00 46
  can1  0C6   [8]  80 33 80 00 7F FF A6 A8
  can1  1F6   [8]  DE 20 00 32 00 FF 00 FF
  can1  212   [6]  FE 1D C0 4C FF FF
  can1  218   [1]  9C
  can1  4FA   [2]  00 00
  can1  671   [2]  40 00
  can1  6F8   [5]  4C 10 D9 AA FF
  can1  511   [7]  00 15 D1 BE 08 A8 D4
  can1  1F8   [8]  47 04 80 1F FE 00 0A 0D
  can1  17E   [8]  FF FF FF 00 FF 40 00 FF
  can1  18A   [6]  FF F0 00 06 40 00
  can1  130   [8]  00 28 6F FE 00 9F FE CD
  can1  12E   [8]  C8 7F FF 7F E0 FF FF 00
  can1  14A   [8]  FF FE 14 00 7C FF 01 00
  can1  14C   [8]  00 05 FF FE 0A A0 80 00
  can1  14D   [8]  3C 00 3C 00 00 00 00 00
  can1  14E   [8]  A8 6A 86 A8 60 00 00 00
  can1  14F   [8]  00 00 FF E0 00 00 00 00
  can1  29A   [8]  00 00 00 00 00 00 02 FD
  can1  2B7   [5]  00 E0 FF FE 94
  can1  666   [4]  30 00 00 00
  can1  17A   [8]  FF FF FF AA 00 C0 31 A3
  can1  14B   [8]  FF E0 00 03 FF FE 00 00
  can1  0C2   [7]  80 33 80 00 87 00 45
  can1  0C6   [8]  80 33 80 00 7F FF A8 A6
  can1  186   [7]  19 50 32 03 20 00 20
  can1  1F6   [8]  DE 20 00 32 00 FF 00 FF
  can1  242   [7]  00 00 FF EF FE 00 0C
  can1  68B   [2]  F2 00
  can1  4F8   [5]  48 10 00 00 00
  can1  1F8   [8]  45 04 80 1F FE 00 0C 0D
  can1  17E   [8]  FF FF FF 00 FF 40 00 FF
  can1  18A   [6]  FF F0 00 06 40 00
  can1  130   [8]  00 48 6F FE 00 9F FE AD
  can1  12E   [8]  C8 7F FF 7F E0 FF FF 00
  can1  14A   [8]  FF FE 14 00 7C FF 02 00
  can1  14C   [8]  00 05 FF FE 0A A1 80 00
  can1  14D   [8]  3C 00 3C 00 00 00 00 00
  can1  14E   [8]  A8 6A 86 A8 60 00 00 00
  can1  14F   [8]  00 00 FF E0 00 00 00 00
  can1  247   [7]  00 00 FF EF FE 00 0C
  can1  29C   [8]  00 00 00 00 FF FF 00 00
  can1  357   [7]  00 00 00 00 00 00 00
  can1  352   [4]  5C 00 00 00
  can1  5DF   [1]  A8
  can1  17A   [8]  FF FF FF AA 00 C0 31 A3
  can1  186   [7]  19 50 32 03 20 00 20
  can1  1F6   [8]  DE 20 00 32 00 FF 00 FF
  can1  0C2   [7]  80 33 80 00 88 00 44
  can1  14B   [8]  FF E0 00 04 FF FE 00 00
  can1  0C6   [8]  80 33 80 00 7F FF AA A4
  can1  212   [6]  FE 1D C0 4C FF FF
  can1  1F8   [8]  43 04 80 1F FE 00 0E 0D
  can1  17E   [8]  FF FF FF 00 FF 40 00 FF
  can1  18A   [6]  FF F0 00 06 40 00
  can1  391   [6]  00 00 80 00 C0 00
  can1  42A   [8]  02 71 00 36 6A 00 E0 00
  can1  430   [8]  00 00 00 18 A0 95 A5 70
  can1  130   [8]  00 68 6F FE 00 9F FE 8D
  can1  14A   [8]  FF FE 14 00 7C FF 03 00
  can1  12E   [8]  C8 7F FF 7F E0 FF FF 00
  can1  14C   [8]  00 05 FF FE 0A A0 80 00
  can1  14D   [8]  3C 00 3C 00 00 00 00 00
  can1  14E   [8]  A8 6A 86 A8 60 00 00 00
  can1  14F   [8]  00 00 FF E0 00 00 00 00
  can1  29A   [8]  00 00 00 00 00 00 03 FC
  can1  2B7   [5]  00 E0 FF FE 94
  can1  668   [2]  42 06
  can1  17A   [8]  FF FF FF AA 00 C0 31 A3
  can1  14B   [8]  FF E0 00 05 FF FE 00 00
  can1  0C2   [7]  80 33 80 00 89 00 43
  can1  0C6   [8]  80 33 80 00 7F FF AC A2
  can1  186   [7]  19 50 32 03 20 00 20
  can1  242   [7]  00 00 FF EF FE 00 0C
  can1  65B   [6]  00 00 00 80 21 04
  can1  1F6   [8]  DE 20 00 32 00 FF 00 FF
  can1  1F8   [8]  51 04 80 1F FE 00 00 0D
  can1  17E   [8]  FF FF FF 00 FF 40 00 FF
  can1  18A   [6]  FF F0 00 06 40 00
  can1  432   [8]  50 40 02 0B CC 40 00 58
  can1  3F7   [2]  08 10
  can1  130   [8]  00 88 6F FE 00 9F FE 6D
  can1  14A   [8]  FF FE 14 00 7C FF 04 00
  can1  12E   [8]  C8 7F FF 7F E0 FF FF 00
  can1  14C   [8]  00 05 FF FE 0A A0 80 00
  can1  14D   [8]  3C 00 3C 00 00 00 00 00
  can1  14E   [8]  A8 6A 86 A8 60 00 00 00
  can1  14F   [8]  00 00 FF E0 00 00 00 00
  can1  247   [7]  00 00 FF EF FE 00 0C
  can1  29C   [8]  00 00 00 00 FF FF 00 00
  can1  357   [7]  00 00 00 00 00 00 00
  can1  354   [8]  00 00 00 00 00 00 00 00
  can1  656   [8]  07 FF 07 FE FF C0 39 00
  can1  3B7   [5]  FF FF 16 4F FE
  can1  17A   [8]  FF FF FF AA 00 C0 31 A3
  can1  186   [7]  19 50 32 03 20 00 20
  can1  1F6   [8]  DE 20 00 32 00 FF 00 FF
  can1  0C2   [7]  80 33 80 00 8A 00 42
  can1  14B   [8]  FF E0 00 06 FF FE 00 00
  can1  0C6   [8]  80 33 80 00 7F FF AE A0
  can1  212   [6]  FE 1D C0 4C FF FF
  can1  634   [3]  80 00 52
  can1  1F8   [8]  4F 04 80 1F FE 00 02 0D
  can1  17E   [8]  FF FF FF 00 FF 40 00 FF
  can1  18A   [6]  FF F0 00 06 40 00
  can1  638   [6]  50 03 C1 60 00 00
  can1  130   [8]  00 A8 6F FE 00 9F FE 4D
  can1  14A   [8]  FF FE 14 00 7C FF 05 00
  can1  12E   [8]  C8 7F FF 7F E0 FF FF 00
  can1  14C   [8]  00 05 FF FE 0A A0 80 00
  can1  14D   [8]  3C 00 3C 00 00 00 00 00
  can1  14E   [8]  A8 6A 86 A8 60 00 00 00
  can1  14F   [8]  00 00 FF E0 00 00 00 00
  can1  29A   [8]  00 00 00 00 00 00 04 FB
  can1  2B7   [5]  00 E0 FF FE 94
  can1  500   [5]  02 63 6E B8 DA
  can1  17A   [8]  FF FF FF AA 00 C0 31 A3
  can1  14B   [8]  FF E0 00 07 FF FE 00 00
  can1  0C2   [7]  80 33 80 00 8B 00 41
  can1  0C6   [8]  80 33 80 00 7F FF B0 9E
  can1  186   [7]  19 50 32 03 20 00 20
  can1  242   [7]  00 00 FF EF FE 00 0C
  can1  1FD   [8]  1A 40 07 FF 7F C8 50 00
  can1  1F6   [8]  DE 20 00 32 00 FF 00 FF
  can1  1F8   [8]  4D 04 80 1F FE 00 04 0D
  can1  17E   [8]  FF FF FF 00 FF 40 00 FF
  can1  18A   [6]  FF F0 00 06 40 00
  can1  439   [2]  3E 80
  can1  130   [8]  00 C8 6F FE 00 9F FE 2D
  can1  12E   [8]  C8 7F FF 7F E0 FF FF 00
  can1  14A   [8]  FF FE 14 00 7C FF 06 00
  can1  14C   [8]  00 05 FF FE 0A A0 80 00
  can1  14D   [8]  3C 00 3C 00 00 00 00 00
  can1  14E   [8]  A8 6A 86 A8 60 00 00 00
  can1  14F   [8]  00 00 FF E0 00 00 00 00
  can1  247   [7]  00 00 FF EF FE 00 0C
  can1  29C   [8]  00 00 00 00 FF FF 00 00
  can1  357   [7]  00 00 00 00 00 00 00
  can1  352   [4]  5C 00 00 00
  can1  17A   [8]  FF FF FF AA 00 C0 31 A3
  can1  186   [7]  19 50 32 03 20 00 20
  can1  66A   [6]  00 FE 00 00 00 00
  can1  0C2   [7]  80 33 80 00 8C 00 40
  can1  14B   [8]  FF E0 00 08 FF FE 00 00
  can1  0C6   [8]  80 33 80 00 7F FF B2 9C
  can1  1F6   [8]  DE 20 00 32 00 FF 00 FF
  can1  212   [6]  FE 1D C0 4C FF FF
  can1  653   [4]  00 59 58 00
  can1  1F8   [8]  4B 04 80 1F FE 00 06 0D
  can1  17E   [8]  FF FF FF 00 FF 40 00 FF
  can1  18A   [6]  FF F0 00 06 40 00
  can1  652   [8]  40 0F FF 15 40 7D 55 51
  can1  5DA   [7]  3C FF 00 FF FF FF FF
  can1  130   [8]  00 E8 6F FE 00 9F FE 0D
  can1  12E   [8]  C8 7F FE 7F E0 FF FF 00
  can1  14A   [8]  FF FE 14 00 7C FF 07 00
  can1  14C   [8]  00 05 FF FE 0A A0 80 00
  can1  14D   [8]  3C 00 3C 00 00 00 00 00
  can1  14E   [8]  A8 6A 86 A8 60 00 00 00
  can1  14F   [8]  00 00 FF E0 00 00 00 00
  can1  29A   [8]  00 00 00 00 00 00 05 FA
  can1  2B7   [5]  00 E0 FF FE 94
  can1  5E9   [8]  00 38 00 00 00 08 00 02
  can1  657   [2]  C4 C4
  can1  17A   [8]  FF FF FF AA 00 C0 31 A3
  can1  14B   [8]  FF E0 00 09 FF FE 00 00
  can1  0C2   [7]  80 33 80 00 8D 00 3F
  can1  0C6   [8]  80 33 80 00 7F FF B4 9A
  can1  186   [7]  19 50 32 03 20 00 20
  can1  242   [7]  00 00 FF EF FE 00 0C
  can1  1F6   [8]  DE 20 00 32 00 FF 00 FF
  can1  1F8   [8]  49 04 80 1F FE 00 08 0D
  can1  17E   [8]  FF FF FF 00 FF 40 00 FF
  can1  18A   [6]  FF F0 00 06 40 00
  can1  391   [6]  00 00 80 00 C0 00
  can1  650   [6]  41 55 C4 16 C0 28
  can1  130   [8]  00 08 6F FE 00 9F FE ED
  can1  12E   [8]  C8 7F FE 7F E0 FF FF 00
  can1  14A   [8]  FF FE 14 00 7C FF 08 00
  can1  14C   [8]  00 05 FF FE 0A A0 80 00
  can1  14D   [8]  3C 00 3C 00 00 00 00 00
  can1  14E   [8]  A8 6A 86 A8 60 00 00 00
  can1  14F   [8]  00 00 FF E0 00 00 00 00
  can1  247   [7]  00 00 FF EF FE 00 0C
  can1  29C   [8]  00 00 00 00 FF FF 00 00
  can1  357   [7]  00 00 00 00 00 00 00
  can1  354   [8]  00 00 00 00 00 00 00 00
  can1  17A   [8]  FF FF FF AA 00 C0 31 A3
  can1  186   [7]  19 50 32 03 20 00 20
  can1  427   [8]  97 FF FF C7 FF 07 21 90
  can1  0C2   [7]  80 33 80 00 8E 00 3E
  can1  14B   [8]  FF E0 00 0A FF FE 00 00
  can1  0C6   [8]  80 33 80 00 7F FF B6 98
  can1  1F6   [8]  DE 20 00 32 00 FF 00 FF
  can1  212   [6]  FE 1D C0 4C FF FF
  can1  1F8   [8]  47 04 80 1F FE 00 0A 0D
  can1  17E   [8]  FF FF FF 00 FF 40 00 FF
  can1  18A   [6]  FF F0 00 06 40 00
  can1  130   [8]  00 28 6F FE 00 9F FE CD
  can1  14A   [8]  FF FE 14 00 7C FF 09 00
  can1  12E   [8]  C8 7F FF 7F E0 FF FF 00
  can1  14C   [8]  00 05 FF FE 0A A0 80 00
  can1  14D   [8]  3C 00 3C 00 00 00 00 00
  can1  14E   [8]  A8 6A 86 A8 60 00 00 00
  can1  14F   [8]  00 00 FF E0 00 00 00 00
  can1  29A   [8]  00 00 00 00 00 00 06 F9
  can1  2B7   [5]  00 E0 FF FE 94
  can1  5D7   [7]  00 00 00 0B 3A 30 C0
  can1  5EF   [3]  00 80 00
  can1  35C   [8]  F4 C6 22 2B 2D 3F 62 28
  can1  552   [2]  01 04
  can1  5DE   [8]  00 0A 00 00 01 00 00 50
  can1  17A   [8]  FF FF FF AA 00 C0 31 A3
  can1  0C2   [7]  80 33 80 00 8F 00 3D
  can1  186   [7]  19 50 32 03 20 00 20
  can1  62C   [1]  00
  can1  14B   [8]  FF E0 00 0B FF FE 00 00
  can1  0C6   [8]  80 33 80 00 7F FF B8 96
  can1  242   [7]  00 00 FF EF FE 00 0C
  can1  42E   [8]  5D 27 D0 DD A4 07 80 83
  can1  1F6   [8]  DE 20 00 32 00 FF 00 FF
  can1  563   [2]  16 6C
  can1  1F8   [8]  45 04 80 1F FE 00 0C 0D
  can1  17E   [8]  FF FF FF 00 FF 40 00 FF
  can1  18A   [6]  FF F0 00 06 40 00
  can1  3F7   [2]  08 10
  can1  130   [8]  00 48 6F FE 00 9F FE AD
  can1  12E   [8]  C8 7F FF 7F E0 FF FF 00
  can1  14A   [8]  FF FE 14 00 7C FF 0A 00
  can1  14C   [8]  00 05 FF FE 0A A0 80 02
  can1  14D   [8]  3C 00 3C 00 00 00 00 00
  can1  14E   [8]  A8 6A 86 A8 60 00 00 00
  can1  14F   [8]  00 00 FF E0 00 00 00 00
  can1  247   [7]  00 00 FF EF FE 00 0C
  can1  29C   [8]  00 00 00 00 FF FF 00 00
  can1  357   [7]  00 00 00 00 00 00 00
  can1  352   [4]  5C 00 00 00
  can1  66D   [2]  AA 80
  can1  5EE   [8]  00 00 02 19 55 80 00 90
  can1  17A   [8]  FF FF FF AA 00 C0 31 A3
  can1  186   [7]  19 50 32 03 20 00 20
  can1  14B   [8]  FF E0 00 0C FF FE 00 00
  can1  0C2   [7]  80 33 80 00 80 00 4C
  can1  0C6   [8]  80 33 80 00 7F FF BA 94
  can1  1F6   [8]  DE 20 00 32 00 FF 00 FF
  can1  212   [6]  FE 1D C0 4C FF FF
  can1  218   [1]  9C
  can1  4FA   [2]  00 00
  can1  671   [2]  40 00
  can1  6F8   [5]  4C 10 DA AA FF
  can1  511   [7]  00 54 9A 77 73 B5 B7
  can1  1F8   [8]  43 04 80 1F FE 00 0E 0D
  can1  17E   [8]  FF FF FF 00 FF 40 00 FF
  can1  18A   [6]  FF F0 00 06 40 00
  can1  130   [8]  00 68 6F FE 00 9F FE 8D
  can1  14A   [8]  FF FE 14 00 7C FF 0B 00
  can1  12E   [8]  C8 7F FF 7F E0 FF FF 00
  can1  14C   [8]  00 05 FF FE 0A A0 80 00
  can1  14D   [8]  3C 00 3C 00 00 00 00 00
  can1  14E   [8]  A8 6A 86 A8 60 00 00 00
  can1  14F   [8]  00 00 FF E0 00 00 00 00
  can1  29A   [8]  00 00 00 00 00 00 07 F8
  can1  2B7   [5]  00 E0 FF FE 94
  can1  666   [4]  30 00 00 00
  can1  17A   [8]  FF FF FF AA 00 C0 31 A3
  can1  14B   [8]  FF E0 00 0D FF FE 00 00
  can1  0C2   [7]  80 33 80 00 81 00 4B
  can1  0C6   [8]  80 33 80 00 7F FF BC 92
  can1  186   [7]  19 50 32 03 20 00 20
  can1  1F6   [8]  DE 20 00 32 00 FF 00 FF
  can1  242   [7]  00 00 FF EF FE 00 0C
  can1  68B   [2]  F2 00
  can1  1F8   [8]  51 04 80 1F FE 00 00 0D
  can1  17E   [8]  FF FF FF 00 FF 40 00 FF
  can1  18A   [6]  FF F0 00 06 40 00
  can1  130   [8]  00 88 6F FE 00 9F FE 6D
  can1  14A   [8]  FF FE 14 00 7C FF 0C 00
  can1  12E   [8]  C8 7F FF 7F E0 FF FF 00
  can1  14C   [8]  00 05 FF FE 0A A0 80 00
  can1  14D   [8]  3C 00 3C 00 00 00 00 00
  can1  14E   [8]  A8 6A 86 A8 60 00 00 00
  can1  14F   [8]  00 00 FF E0 00 00 00 00
  can1  247   [7]  00 00 FF EF FE 00 0C
  can1  29C   [8]  00 00 00 00 FF FF 00 00
  can1  357   [7]  00 00 00 00 00 00 00
  can1  354   [8]  00 00 00 00 00 00 00 00
  can1  4F8   [5]  48 10 00 00 00
  can1  5DF   [1]  A8
  can1  17A   [8]  FF FF FF AA 00 C0 31 A3
  can1  186   [7]  19 50 32 03 20 00 20
  can1  1F6   [8]  DE 20 00 32 00 FF 00 FF
  can1  0C2   [7]  80 33 80 00 82 00 4A
  can1  14B   [8]  FF E0 00 0E FF FE 00 00
  can1  0C6   [8]  80 33 80 00 7F FF BE 90
  can1  212   [6]  FE 1D C0 4C FF FF
  can1  1F8   [8]  4F 04 80 1F FE 00 02 0D
  can1  17E   [8]  FF FF FF 00 FF 40 00 FF
  can1  18A   [6]  FF F0 00 06 40 00
  can1  391   [6]  00 00 80 00 C0 00
  can1  42A   [8]  02 71 00 36 6A 00 E0 00
  can1  430   [8]  00 00 00 18 A0 95 A5 70
  can1  130   [8]  00 A8 6F FE 00 9F FE 4D
  can1  14A   [8]  FF FE 14 00 7C FF 0D 00
  can1  12E   [8]  C9 7F FE 7F E0 FF FF 00
  can1  14C   [8]  00 05 FF FE 0A A0 80 01
  can1  14D   [8]  3C 00 3C 00 00 00 00 00
  can1  14E   [8]  A8 6A 86 A8 60 00 00 00
  can1  14F   [8]  00 00 FF E0 00 00 00 00
  can1  29A   [8]  00 00 00 00 00 00 08 F7
  can1  2B7   [5]  00 E0 FF FE 94
  can1  668   [2]  42 06
  can1  17A   [8]  FF FF FF AA 00 C0 31 A3
  can1  14B   [8]  FF E0 00 0F FF FE 00 00
  can1  0C2   [7]  80 33 80 00 83 00 49
  can1  0C6   [8]  80 33 80 00 7F FF A0 AE
  can1  186   [7]  19 50 32 03 20 00 20
  can1  242   [7]  00 00 FF EF FE 00 0C
  can1  65B   [6]  00 00 00 80 21 04
  can1  1F6   [8]  DE 20 00 32 00 FF 00 FF
  can1  1F8   [8]  4D 04 80 1F FE 00 04 0D
  can1  17E   [8]  FF FF FF 00 FF 40 00 FF
  can1  18A   [6]  FF F0 00 06 40 00
  can1  432   [8]  50 40 02 0B CC 40 00 58
  can1  130   [8]  00 C8 6F FE 00 9F FE 2D
  can1  12E   [8]  C9 7F FE 7F E0 FF FF 00
  can1  14A   [8]  FF FE 14 00 7C FF 0E 00
  can1  14C   [8]  00 05 FF FE 0A A0 80 01
  can1  14D   [8]  3C 00 3C 00 00 00 00 00
  can1  14E   [8]  A8 6A 86 A8 60 00 00 00
  can1  14F   [8]  00 00 FF E0 00 00 00 00
  can1  247   [7]  00 00 FF EF FE 00 0C
  can1  29C   [8]  00 00 00 00 FF FF 00 00
  can1  357   [7]  00 00 00 00 00 00 00
  can1  352   [4]  5C 00 00 00
  can1  656   [8]  07 FF 07 FE FF C0 39 00
  can1  3B7   [5]  FF FF 16 4F FE
  can1  17A   [8]  FF FF FF AA 00 C0 31 A3
  can1  186   [7]  19 50 32 03 20 00 20
  can1  1F6   [8]  DE 20 00 32 00 FF 00 FF
  can1  0C2   [7]  80 33 80 00 84 00 48
  can1  14B   [8]  FF E0 00 00 FF FE 00 00
  can1  0C6   [8]  80 33 80 00 7F FF A2 AC
  can1  212   [6]  FE 1D C0 4C FF FF
  can1  634   [3]  80 00 52
  can1  1F8   [8]  4B 04 80 1F FE 00 06 0D
  can1  17E   [8]  FF FF FF 00 FF 40 00 FF
  can1  18A   [6]  FF F0 00 06 40 00
  can1  638   [6]  50 03 C1 60 00 00
  can1  130   [8]  00 E8 6F FE 00 9F FE 0D
  can1  14A   [8]  FF FE 14 00 7C FF 0F 00
  can1  12E   [8]  C9 7F FE 7F F0 FF FF 00
  can1  14C   [8]  00 05 FF FE 0A A0 80 00
  can1  14D   [8]  3C 00 3C 00 00 00 00 00
  can1  14E   [8]  A8 6A 86 A8 60 00 00 00
  can1  14F   [8]  00 00 FF E0 00 00 00 00
  can1  29A   [8]  00 00 00 00 00 00 09 F6
  can1  2B7   [5]  00 E0 FF FE 94
  can1  500   [5]  02 92 6E 2E 3D
  can1  69F   [4]  18 84 70 9F
  can1  17A   [8]  FF FF FF AA 00 C0 31 A3
  can1  14B   [8]  FF E0 00 01 FF FE 00 00
  can1  0C2   [7]  80 33 80 00 85 00 47
  can1  0C6   [8]  80 33 80 00 7F FF A4 AA
  can1  186   [7]  19 50 32 03 20 00 20
  can1  242   [7]  00 00 FF EF FE 00 0C
  can1  1FD   [8]  19 40 07 FF 7F C8 50 00
  can1  1F6   [8]  DE 20 00 32 00 FF 00 FF
  can1  1F8   [8]  49 04 80 1F FE 00 08 0D
  can1  17E   [8]  FF FF FF 00 FF 40 00 FF
  can1  18A   [6]  FF F0 00 06 40 00
  can1  439   [2]  3E 80
  can1  3F7   [2]  08 10
  can1  130   [8]  00 08 6F FE 00 9F FE ED
  can1  12E   [8]  C9 7F FE 7F F0 FF FF 00
  can1  14A   [8]  FF FE 14 00 7C FF 00 00
  can1  14C   [8]  00 05 FF FE 0A A0 80 00
  can1  14D   [8]  3C 00 3C 00 00 00 00 00
  can1  14E   [8]  A8 6A 86 A8 60 00 00 00
  can1  14F   [8]  00 00 FF E0 00 00 00 00
  can1  247   [7]  00 00 FF EF FE 00 0C
  can1  29C   [8]  00 00 00 00 FF FF 00 00
  can1  357   [7]  00 00 00 00 00 00 00
  can1  354   [8]  00 00 00 00 00 00 00 00
  can1  17A   [8]  FF FF FF AA 00 C0 31 A3
  can1  186   [7]  19 50 32 03 20 00 20
  can1  66A   [6]  00 FE 00 00 00 00
  can1  0C2   [7]  80 33 80 00 86 00 46
  can1  14B   [8]  FF E0 00 02 FF FE 00 00
  can1  0C6   [8]  80 33 80 00 7F FF A6 A8
  can1  1F6   [8]  DE 20 00 32 00 FF 00 FF
  can1  212   [6]  FE 1D C0 4C FF FF
  can1  653   [4]  00 59 58 00
  can1  1F8   [8]  47 04 80 1F FE 00 0A 0D
  can1  17E   [8]  FF FF FF 00 FF 40 00 FF
  can1  18A   [6]  FF F0 00 06 40 00
  can1  652   [8]  40 0F FF 15 40 7D 55 51
  can1  5DA   [7]  3C FF 00 FF FF FF FF
  can1  130   [8]  00 28 6F FE 00 9F FE CD
  can1  14A   [8]  FF FE 14 00 7C FF 01 00
  can1  12E   [8]  C8 7F FE 7F E0 FF FF 00
  can1  14C   [8]  00 05 FF FE 0A A0 80 01
  can1  14D   [8]  3C 00 3C 00 00 00 00 00
  can1  14E   [8]  A8 6A 86 A8 60 00 00 00
  can1  14F   [8]  00 00 FF E0 00 00 00 00
  can1  29A   [8]  00 00 00 00 00 00 0A F5
  can1  2B7   [5]  00 E0 FF FE 94
  can1  5E9   [8]  00 38 00 00 00 08 00 02
  can1  657   [2]  C4 C4
  can1  17A   [8]  FF FF FF AA 00 C0 31 A3
  can1  14B   [8]  FF E0 00 03 FF FE 00 00
  can1  0C2   [7]  80 33 80 00 87 00 45
  can1  0C6   [8]  80 33 80 00 7F FF A8 A6
  can1  186   [7]  19 50 32 03 20 00 20
  can1  242   [7]  00 00 FF EF FE 00 0C
  can1  654   [8]  00 00 00 3C FF C1 6A 9C
  can1  1F6   [8]  DE 20 00 32 00 FF 00 FF
  can1  1F8   [8]  45 04 80 1F FE 00 0C 0D
  can1  17E   [8]  FF FF FF 00 FF 40 00 FF
  can1  18A   [6]  FF F0 00 06 40 00
  can1  391   [6]  00 00 80 00 C0 00
  can1  650   [6]  41 55 C4 16 C0 28
  can1  130   [8]  00 48 6F FE 00 9F FE AD
  can1  14A   [8]  FF FE 14 00 7C FA 02 00
  can1  12E   [8]  C8 7F FE 7F E0 FF FF 00
  can1  14C   [8]  00 05 FF FE 0A A0 80 00
  can1  14D   [8]  3C 00 3C 00 00 00 00 00
  can1  14E   [8]  A8 6A 86 A8 60 00 00 00
  can1  14F   [8]  00 00 FF E0 00 00 00 00
  can1  247   [7]  00 00 FF EF FE 00 0C
  can1  29C   [8]  00 00 00 00 FF FF 00 00
  can1  357   [7]  00 00 00 00 00 00 00
  can1  352   [4]  5C 00 00 00
  can1  17A   [8]  FF FF FF AA 00 C0 31 A3
  can1  186   [7]  19 50 32 03 20 00 20
  can1  14B   [8]  FF E0 00 04 FF FE 00 00
  can1  0C2   [7]  80 33 80 00 88 00 44
  can1  0C6   [8]  80 33 80 00 7F FF AA A4
  can1  427   [8]  97 FF FF C7 FF 07 21 90
  can1  1F6   [8]  DE 20 00 32 00 FF 00 FF
  can1  212   [6]  FE 1D C0 4C FF FF
  can1  1F8   [8]  43 04 80 1F FE 00 0E 0D
  can1  17E   [8]  FF FF FF 00 FF 40 00 FF
  can1  18A   [6]  FF F0 00 06 40 00
  can1  658   [6]  26 00 74 63 62 40
  can1  130   [8]  00 68 6F FE 00 9F FE 8D
  can1  14A   [8]  FF FE 14 00 7C FE 03 00
  can1  12E   [8]  C8 7F FF 7F E0 FF FF 00
  can1  14C   [8]  00 05 FF FE 0A A1 80 00
  can1  14D   [8]  3C 00 3C 00 00 00 00 00
  can1  14E   [8]  A8 6A 86 A8 60 00 00 00
  can1  14F   [8]  00 00 FF E0 00 00 00 00
  can1  29A   [8]  00 00 00 00 00 00 0B F4
  can1  2B7   [5]  00 E0 FF FE 94
  can1  5D7   [7]  00 00 00 0B 3A 30 C0
  can1  5EF   [3]  00 80 00
  can1  35C   [8]  F4 C6 22 2B 2D 3F 62 28
  can1  552   [2]  01 04
  can1  5DE   [8]  00 0A 00 00 01 00 00 50
  can1  17A   [8]  FF FF FF AA 00 C0 31 A3
  can1  0C2   [7]  80 33 80 00 89 00 43
  can1  186   [7]  19 50 32 03 20 00 20
  can1  62C   [1]  00
  can1  14B   [8]  FF E0 00 05 FF FE 00 00
  can1  0C6   [8]  80 33 80 00 7F FF AC A2
  can1  242   [7]  00 00 FF EF FE 00 0C
  can1  42E   [8]  5D 27 D0 DD A4 07 80 83
  can1  1F6   [8]  DE 20 00 32 00 FF 00 FF
  can1  563   [2]  29 1C
  can1  1F8   [8]  51 04 80 1F FE 00 00 0D
  can1  17E   [8]  FF FF FF 00 FF 40 00 FF
  can1  18A   [6]  FF F0 00 06 40 00
  can1  130   [8]  00 88 6F FE 00 9F FE 6D
  can1  12E   [8]  C8 7F FF 7F E0 FF FF 00
  can1  14A   [8]  FF FE 14 00 7C FF 04 00
  can1  14C   [8]  00 05 FF FE 0A A1 80 00
  can1  14D   [8]  3C 00 3C 00 00 00 00 00
  can1  14E   [8]  A8 6A 86 A8 60 00 00 00
  can1  14F   [8]  00 00 FF E0 00 00 00 00
  can1  247   [7]  00 00 FF EF FE 00 0C
  can1  29C   [8]  00 00 00 00 FF FF 00 00
  can1  357   [7]  00 00 00 00 00 00 00
  can1  354   [8]  00 00 00 00 00 00 00 00
  can1  66D   [2]  AA 80
  can1  5EE   [8]  00 00 02 19 55 80 00 90
  can1  17A   [8]  FF FF FF AA 00 C0 31 A3
  can1  186   [7]  19 50 32 03 20 00 20
  can1  14B   [8]  FF E0 00 06 FF FE 00 00
  can1  0C2   [7]  80 33 80 00 8A 00 42
  can1  0C6   [8]  80 33 80 00 7F FF AE A0
  can1  1F6   [8]  DE 20 00 32 00 FF 00 FF
  can1  212   [6]  FE 1D C0 4C FF FF
  can1  218   [1]  9C
  can1  4FA   [2]  00 00
  can1  671   [2]  40 00
  can1  6F8   [5]  4C 10 D9 AA FF
  can1  511   [7]  00 93 63 30 DE C2 9A
  can1  1F8   [8]  4F 04 80 1F FE 00 02 0D
  can1  17E   [8]  FF FF FF 00 FF 40 00 FF
  can1  18A   [6]  FF F0 00 06 40 00
  can1  130   [8]  00 A8 6F FE 00 9F FE 4D
  can1  14A   [8]  FF FE 14 00 7C FF 05 00
  can1  12E   [8]  C7 7F FF 7F D0 FF FF 00
  can1  14C   [8]  00 05 FF FE 0A A0 80 02
  can1  14D   [8]  3C 00 3C 00 00 00 00 00
  can1  14E   [8]  A8 6A 86 A8 60 00 00 00
  can1  14F   [8]  00 00 FF E0 00 00 00 00
  can1  29A   [8]  00 00 00 00 00 00 0C F3
  can1  2B7   [5]  00 E0 FF FE 94
  can1  666   [4]  30 00 00 00
  can1  17A   [8]  FF FF FF AA 00 C0 31 A3
  can1  14B   [8]  FF E0 00 07 FF FE 00 00
  can1  0C2   [7]  80 33 80 00 8B 00 41
  can1  0C6   [8]  80 33 80 00 7F FF B0 9E
  can1  186   [7]  19 50 32 03 20 00 20
  can1  1F6   [8]  DE 20 00 32 00 FF 00 FF
  can1  242   [7]  00 00 FF EF FE 00 0C
  can1  68B   [2]  F2 00
  can1  4F8   [5]  48 10 00 00 00
  can1  1F8   [8]  4D 04 80 1F FE 00 04 0D
  can1  17E   [8]  FF FF FF 00 FF 40 00 FF
  can1  18A   [6]  FF F0 00 06 40 00
  can1  3F7   [2]  08 10
  can1  130   [8]  00 C8 6F FE 00 9F FE 2D
  can1  12E   [8]  C7 7F FF 7F D0 FF FF 00
  can1  14A   [8]  FF FE 14 00 7C FF 06 00
  can1  14C   [8]  00 05 FF FE 0A A0 80 01
  can1  14D   [8]  3C 00 3C 00 00 00 00 00
  can1  14E   [8]  A8 6A 86 A8 60 00 00 00
  can1  14F   [8]  00 00 FF E0 00 00 00 00
  can1  247   [7]  00 00 FF EF FE 00 0C
  can1  29C   [8]  00 00 00 00 FF FF 00 00
  can1  357   [7]  00 00 00 00 00 00 00
  can1  352   [4]  5C 00 00 00
  can1  5DF   [1]  A8
  can1  17A   [8]  FF FF FF AA 00 C0 31 A3
  can1  186   [7]  19 50 32 03 20 00 20
  can1  1F6   [8]  DE 20 00 32 00 FF 00 FF
  can1  0C2   [7]  80 33 80 00 8C 00 40
  can1  14B   [8]  FF E0 00 08 FF FE 00 00
  can1  0C6   [8]  80 33 80 00 7F FF B2 9C
  can1  212   [6]  FE 1D C0 4C FF FF
  can1  1F8   [8]  4B 04 80 1F FE 00 06 0D
  can1  17E   [8]  FF FF FF 00 FF 40 00 FF
  can1  18A   [6]  FF F0 00 06 40 00
  can1  391   [6]  00 00 80 00 C0 00
  can1  42A   [8]  02 71 00 36 6A 00 E0 00
  can1  430   [8]  00 00 00 18 A0 95 A5 60
  can1  668   [2]  42 06
  can1  130   [8]  00 E8 6F FE 00 9F FE 0D
  can1  12E   [8]  C8 7F FF 7F D0 FF FF 00
  can1  14A   [8]  FF FE 14 00 7C FF 07 00
  can1  14C   [8]  00 05 FF FE 0A A0 80 03
  can1  14D   [8]  3C 00 3C 00 00 00 00 00
  can1  14E   [8]  A8 6A 86 A8 60 00 00 00
  can1  14F   [8]  00 00 FF E0 00 00 00 00
  can1  29A   [8]  00 00 00 00 00 00 0D F2
  can1  2B7   [5]  00 E0 FF FE 94
  can1  17A   [8]  FF FF FF AA 00 C0 31 A3
  can1  14B   [8]  FF E0 00 09 FF FE 00 00
  can1  0C2   [7]  80 33 80 00 8D 00 3F
  can1  0C6   [8]  80 33 80 00 7F FF B4 9A
  can1  186   [7]  19 50 32 03 20 00 20
  can1  242   [7]  00 00 FF EF FE 00 0C
  can1  65B   [6]  00 00 00 80 21 04
  can1  1F6   [8]  DE 20 00 32 00 FF 00 FF
  can1  1F8   [8]  49 04 80 1F FE 00 08 0D
  can1  17E   [8]  FF FF FF 00 FF 40 00 FF
  can1  18A   [6]  FF F0 00 06 40 00
  can1  432   [8]  50 40 02 0B CC 40 00 58
  can1  130   [8]  00 08 6F FE 00 9F FE ED
  can1  14A   [8]  FF FE 14 00 7C FF 08 00
  can1  12E   [8]  C8 7F FF 7F D0 FF FF 00
  can1  14C   [8]  00 05 FF FE 0A A0 80 00
  can1  14D   [8]  3C 00 3C 00 00 00 00 00
  can1  14E   [8]  A8 6A 86 A8 60 00 00 00
  can1  14F   [8]  00 00 FF E0 00 00 00 00
  can1  247   [7]  00 00 FF EF FE 00 0C
  can1  29C   [8]  00 00 00 00 FF FF 00 00
  can1  357   [7]  00 00 00 00 00 00 00
  can1  354   [8]  00 00 00 00 00 00 00 00
  can1  656   [8]  07 FF 07 FE FF C0 39 00
  can1  3B7   [5]  FF FF 16 4F FE
  can1  17A   [8]  FF FF FF AA 00 C0 31 A3
  can1  186   [7]  19 50 32 03 20 00 20
  can1  14B   [8]  FF E0 00 0A FF FE 00 00
  can1  0C2   [7]  80 33 80 00 8E 00 3E
  can1  0C6   [8]  80 33 80 00 7F FF B6 98
  can1  637   [7]  00 00 00 00 C8 00 10
  can1  212   [6]  FE 1D C0 4C FF FF
  can1  1F6   [8]  DE 20 00 32 00 FF 00 FF
  can1  634   [3]  80 00 52
  can1  1F8   [8]  47 04 80 1F FE 00 0A 0D
  can1  17E   [8]  FF FF FF 00 FF 40 00 FF
  can1  18A   [6]  FF F0 00 06 40 00
  can1  638   [6]  50 03 C1 60 00 00
  can1  130   [8]  00 28 6F FE 00 9F FE CD
  can1  14A   [8]  FF FE 14 00 7C FF 09 00
  can1  12E   [8]  C9 7F FF 7F D0 FF FF 00
  can1  14C   [8]  00 05 FF FE 0A A1 80 00
  can1  14D   [8]  3C 00 3C 00 00 00 00 00
  can1  14E   [8]  A8 6A 86 A8 60 00 00 00
  can1  14F   [8]  00 00 FF E0 00 00 00 00
  can1  29A   [8]  00 00 00 00 00 00 0E F1
  can1  2B7   [5]  00 E0 FF FE 94
  can1  500   [5]  02 23 DB 90 2B
  can1  17A   [8]  FF FF FF AA 00 C0 31 A3
  can1  14B   [8]  FF E0 00 0B FF FE 00 00
  can1  0C2   [7]  80 33 80 00 8F 00 3D
  can1  0C6   [8]  80 33 80 00 7F FF B8 96
  can1  186   [7]  19 50 32 03 20 00 20
  can1  242   [7]  00 00 FF EF FE 00 0C
  can1  1FD   [8]  19 40 07 FF 7F C8 50 00
  can1  62D   [4]  DE E5 80 00
  can1  1F6   [8]  DE 20 00 32 00 FF 00 FF
  can1  1F8   [8]  45 04 80 1F FE 00 0C 0D
  can1  17E   [8]  FF FF FF 00 FF 40 00 FF
  can1  18A   [6]  FF F0 00 06 40 00
  can1  439   [2]  3E 80
  can1  130   [8]  00 48 6F FE 00 9F FE AD
  can1  14A   [8]  FF FE 14 00 7C FF 0A 00
  can1  12E   [8]  C9 7F FF 7F D0 FF FF 00
  can1  14C   [8]  00 05 FF FE 0A A2 80 00
  can1  14D   [8]  3C 00 3C 00 00 00 00 00
  can1  14E   [8]  A8 6A 86 A8 60 00 00 00
  can1  14F   [8]  00 00 FF E0 00 00 00 00
  can1  247   [7]  00 00 FF EF FE 00 0C
  can1  29C   [8]  00 00 00 00 FF FF 00 00
  can1  357   [7]  00 00 00 00 00 00 00
  can1  352   [4]  5C 00 00 00
  can1  17A   [8]  FF FF FF AA 00 C0 31 A3
  can1  186   [7]  19 50 32 03 20 00 20
  can1  66A   [6]  00 FE 00 00 00 00
  can1  14B   [8]  FF E0 00 0C FF FE 00 00
  can1  0C2   [7]  80 33 80 00 80 00 4C
  can1  0C6   [8]  80 33 80 00 7F FF BA 94
  can1  1F6   [8]  DE 20 00 32 00 FF 00 FF
  can1  212   [6]  FE 1D C0 4C FF FF
  can1  653   [4]  00 59 58 00
  can1  1F8   [8]  43 04 80 1F FE 00 0E 0D
  can1  17E   [8]  FF FF FF 00 FF 40 00 FF
  can1  18A   [6]  FF F0 00 06 40 00
  can1  652   [8]  40 0F FF 15 40 7D 55 51
  can1  5DA   [7]  3C FF 00 FF FF FF FF
  can1  130   [8]  00 68 6F FE 00 9F FE 8D
  can1  14A   [8]  FF FE 14 00 7C FF 0B 00
  can1  12E   [8]  C8 7F FF 7F D0 FF FF 00
  can1  14C   [8]  00 05 FF FE 0A A0 80 00
  can1  14D   [8]  3C 00 3C 00 00 00 00 00
  can1  14E   [8]  A8 6A 86 A8 60 00 00 00
  can1  14F   [8]  00 00 FF E0 00 00 00 00
  can1  29A   [8]  00 00 00 00 00 00 0F F0
  can1  2B7   [5]  00 E0 FF FE 94
  can1  5E9   [8]  00 38 00 00 00 08 00 02
  can1  657   [2]  C4 C4
  can1  17A   [8]  FF FF FF AA 00 C0 31 A3
  can1  14B   [8]  FF E0 00 0D FF FE 00 00
  can1  0C2   [7]  80 33 80 00 81 00 4B
  can1  0C6   [8]  80 33 80 00 7F FF BC 92
  can1  186   [7]  19 50 32 03 20 00 20
  can1  1F6   [8]  DE 20 00 32 00 FF 00 FF
  can1  242   [7]  00 00 FF EF FE 00 0C
  can1  1F8   [8]  51 04 80 1F FE 00 00 0D
  can1  17E   [8]  FF FF FF 00 FF 40 00 FF
  can1  18A   [6]  FF F0 00 06 40 00
  can1  3F7   [2]  08 10
  can1  391   [6]  00 00 80 00 C0 00
  can1  650   [6]  41 55 C4 16 C0 28
  can1  130   [8]  00 88 6F FE 00 9F FE 6D
  can1  12E   [8]  C8 7F FF 7F D0 FF FF 00
  can1  14A   [8]  FF FE 14 00 7C FF 0C 00
  can1  14C   [8]  00 05 FF FE 0A A0 80 00
  can1  14D   [8]  3C 00 3C 00 00 00 00 00
  can1  14E   [8]  A8 6A 86 A8 60 00 00 00
  can1  14F   [8]  00 00 FF E0 00 00 00 00
  can1  247   [7]  00 00 FF EF FE 00 0C
  can1  29C   [8]  00 00 00 00 FF FF 00 00
  can1  357   [7]  00 00 00 00 00 00 00
  can1  354   [8]  00 00 00 00 00 00 00 00
  can1  17A   [8]  FF FF FF AA 00 C0 31 A3
  can1  186   [7]  19 50 32 03 20 00 20
  can1  427   [8]  97 FF FF C7 FF 07 21 90
  can1  0C2   [7]  80 33 80 00 82 00 4A
  can1  14B   [8]  FF E0 00 0E FF FE 00 00
  can1  0C6   [8]  80 33 80 00 7F FF BE 90
  can1  1F6   [8]  DE 20 00 32 00 FF 00 FF
  can1  212   [6]  FE 1D C0 4C FF FF
  can1  1F8   [8]  4F 04 80 1F FE 00 02 0D
  can1  17E   [8]  FF FF FF 00 FF 40 00 FF
  can1  18A   [6]  FF F0 00 06 40 00
  can1  130   [8]  00 A8 6F FE 00 9F FE 4D
  can1  12E   [8]  C7 7F FE 7F E0 FF FF 00
  can1  14A   [8]  FF FE 14 00 7C FF 0D 00
  can1  14C   [8]  00 05 FF FE 0A A0 80 00
  can1  14D   [8]  3C 00 3C 00 00 00 00 00
  can1  14E   [8]  A8 6A 86 A8 60 00 00 00
  can1  14F   [8]  00 00 FF E0 00 00 00 00
  can1  29A   [8]  00 00 00 00 00 00 00 FF
  can1  2B7   [5]  00 E0 FF FE 94
  can1  5D7   [7]  00 00 00 0B 3A 30 C0
  can1  5EF   [3]  00 80 00
  can1  35C   [8]  F4 C6 22 2B 2D 3F 62 28
  can1  552   [2]  01 04
  can1  5DE   [8]  00 0A 00 00 01 00 00 50
  can1  17A   [8]  FF FF FF AA 00 C0 31 A3
  can1  0C2   [7]  80 33 80 00 83 00 49
  can1  186   [7]  19 50 32 03 20 00 20
  can1  62C   [1]  00
  can1  14B   [8]  FF E0 00 0F FF FE 00 00
  can1  0C6   [8]  80 33 80 00 7F FF A0 AE
  can1  242   [7]  00 00 FF EF FE 00 0C
  can1  42E   [8]  5D 27 D0 DD C4 07 80 83
  can1  563   [2]  31 0C
  can1  1F6   [8]  DE 20 00 32 00 FF 00 FF
  can1  1F8   [8]  4D 04 80 1F FE 00 04 0D
  can1  17E   [8]  FF FF FF 00 FF 40 00 FF
  can1  18A   [6]  FF F0 00 06 40 00
  can1  130   [8]  00 C8 6F FE 00 9F FE 2D
  can1  12E   [8]  C7 7F FE 7F E0 FF FF 00
  can1  14A   [8]  FF FE 14 00 7C FF 0E 00
  can1  14C   [8]  00 05 FF FE 0A A0 80 00
  can1  14D   [8]  3C 00 3C 00 00 00 00 00
  can1  14E   [8]  A8 6A 86 A8 60 00 00 00
  can1  14F   [8]  00 00 FF E0 00 00 00 00
  can1  247   [7]  00 00 FF EF FE 00 0C
  can1  29C   [8]  00 00 00 00 FF FF 00 00
  can1  357   [7]  00 00 00 00 00 00 00
  can1  352   [4]  5C 00 00 00
  can1  66D   [2]  AA 80
  can1  5EE   [8]  00 00 02 19 55 80 00 90
  can1  17A   [8]  FF FF FF AA 00 C0 31 A3
  can1  186   [7]  19 50 32 03 20 00 20
  can1  1F6   [8]  DE 20 00 32 00 FF 00 FF
  can1  0C2   [7]  80 33 80 00 84 00 48
  can1  14B   [8]  FF E0 00 00 FF FE 00 00
  can1  0C6   [8]  80 33 80 00 7F FF A2 AC
  can1  212   [6]  FE 1D C0 4C FF FF
  can1  218   [1]  9C
  can1  4FA   [2]  00 00
  can1  671   [2]  40 00
  can1  6F8   [5]  4C 10 DA AA FF
  can1  511   [7]  00 D2 2C E9 49 CF 7D
  can1  1F8   [8]  4B 04 80 1F FE 00 06 0D
  can1  17E   [8]  FF FF FF 00 FF 40 00 FF
  can1  18A   [6]  FF F0 00 06 40 00
  can1  130   [8]  00 E8 6F FE 00 9F FE 0D
  can1  14A   [8]  FF FE 14 00 7C FF 0F 00
  can1  12E   [8]  C8 7F FF 7F F0 FF FF 00
  can1  14C   [8]  00 05 FF FE 0A A0 80 00
  can1  14D   [8]  3C 00 3C 00 00 00 00 00
  can1  14E   [8]  A8 6A 86 A8 60 00 00 00
  can1  14F   [8]  00 00 FF E0 00 00 00 00
  can1  29A   [8]  00 00 00 00 00 00 01 FE
  can1  2B7   [5]  00 E0 FF FE 94
  can1  666   [4]  30 00 00 00
  can1  17A   [8]  FF FF FF AA 00 C0 31 A3
  can1  14B   [8]  FF E0 00 01 FF FE 00 00
  can1  0C2   [7]  80 33 80 00 85 00 47
  can1  0C6   [8]  80 33 80 00 7F FF A4 AA
  can1  186   [7]  19 50 32 03 20 00 20
  can1  1F6   [8]  DE 20 00 32 00 FF 00 FF
  can1  242   [7]  00 00 FF EF FE 00 0C
  can1  68B   [2]  F2 00
  can1  4F8   [5]  48 10 00 00 00
  can1  1F8   [8]  49 04 80 1F FE 00 08 0D
  can1  17E   [8]  FF FF FF 00 FF 40 00 FF
  can1  18A   [6]  FF F0 00 06 40 00
  can1  130   [8]  00 08 6F FE 00 9F FE ED
  can1  14A   [8]  FF FE 14 00 7C FF 00 00
  can1  12E   [8]  C8 7F FF 7F F0 FF FF 00
  can1  14C   [8]  00 05 FF FE 0A A0 80 01
  can1  14D   [8]  3C 00 3C 00 00 00 00 00
  can1  14E   [8]  A8 6A 86 A8 60 00 00 00
  can1  14F   [8]  00 00 FF E0 00 00 00 00
  can1  247   [7]  00 00 FF EF FE 00 0C
  can1  29C   [8]  00 00 00 00 FF FF 00 00
  can1  357   [7]  00 00 00 00 00 00 00
  can1  354   [8]  00 00 00 00 00 00 00 00
  can1  5DF   [1]  A8
  can1  17A   [8]  FF FF FF AA 00 C0 31 A3
  can1  186   [7]  19 50 32 03 20 00 20
  can1  1F6   [8]  DE 20 00 32 00 FF 00 FF
  can1  14B   [8]  FF E0 00 02 FF FE 00 00
  can1  0C2   [7]  80 33 80 00 86 00 46
  can1  0C6   [8]  80 33 80 00 7F FF A6 A8
  can1  212   [6]  FE 1D C0 4C FF FF
  can1  1F8   [8]  47 04 80 1F FE 00 0A 0D
  can1  17E   [8]  FF FF FF 00 FF 40 00 FF
  can1  18A   [6]  FF F0 00 06 40 00
  can1  391   [6]  00 00 80 00 C0 00
  can1  42A   [8]  02 71 00 36 6A 00 E0 00
  can1  430   [8]  00 00 00 18 A0 95 A5 60
  can1  130   [8]  00 28 6F FE 00 9F FE CD
  can1  14A   [8]  FF FE 14 00 7C FF 01 00
  can1  12E   [8]  C9 7F FF 7F F0 FF FF 00
  can1  14C   [8]  00 05 FF FE 0A A0 80 00
  can1  14D   [8]  3C 00 3C 00 00 00 00 00
  can1  14E   [8]  A8 6A 86 A8 60 00 00 00
  can1  14F   [8]  00 00 FF E0 00 00 00 00
  can1  29A   [8]  00 00 00 00 00 00 02 FD
  can1  2B7   [5]  00 E0 FF FE 94
  can1  668   [2]  42 06
  can1  17A   [8]  FF FF FF AA 00 C0 31 A3
  can1  14B   [8]  FF E0 00 03 FF FE 00 00
  can1  0C2   [7]  80 33 80 00 87 00 45
  can1  0C6   [8]  80 33 80 00 7F FF A8 A6
  can1  186   [7]  19 50 32 03 20 00 20
  can1  242   [7]  00 00 FF EF FE 00 0C
  can1  65B   [6]  00 00 00 80 21 04
  can1  1F6   [8]  DE 20 00 32 00 FF 00 FF
  can1  1F8   [8]  45 04 80 1F FE 00 0C 0D
  can1  17E   [8]  FF FF FF 00 FF 40 00 FF
  can1  18A   [6]  FF F0 00 06 40 00
  can1  432   [8]  50 40 02 0B CC 40 00 58
  can1  3F7   [2]  08 10
  can1  130   [8]  00 48 6F FE 00 9F FE AD
  can1  12E   [8]  C9 7F FF 7F F0 FF FF 00
  can1  14A   [8]  FF FE 14 00 7C FF 02 00
  can1  14C   [8]  00 05 FF FE 0A A0 80 00
  can1  14D   [8]  3C 00 3C 00 00 00 00 00
  can1  14E   [8]  A8 6A 86 A8 60 00 00 00
  can1  14F   [8]  00 00 FF E0 00 00 00 00
  can1  247   [7]  00 00 FF EF FE 00 0C
  can1  29C   [8]  00 00 00 00 FF FF 00 00
  can1  357   [7]  00 00 00 00 00 00 00
  can1  352   [4]  5C 00 00 00
  can1  656   [8]  07 FF 07 FE FF C0 39 00
  can1  3B7   [5]  FF FF 16 4F FE
  can1  17A   [8]  FF FF FF AA 00 C0 31 A3
  can1  186   [7]  19 50 32 03 20 00 20
  can1  1F6   [8]  DE 20 00 32 00 FF 00 FF
  can1  14B   [8]  FF E0 00 04 FF FE 00 00
  can1  0C2   [7]  80 33 80 00 88 00 44
  can1  0C6   [8]  80 33 80 00 7F FF AA A4
  can1  212   [6]  FE 1D C0 4C FF FF
  can1  634   [3]  80 00 52
  can1  1F8   [8]  43 04 80 1F FE 00 0E 0D
  can1  17E   [8]  FF FF FF 00 FF 40 00 FF
  can1  18A   [6]  FF F0 00 06 40 00
  can1  638   [6]  50 03 C1 60 00 00
  can1  130   [8]  00 68 6F FE 00 9F FE 8D
  can1  12E   [8]  C9 7F FF 7F F0 FF FF 00
  can1  14A   [8]  FF FE 14 00 7C FF 03 00
  can1  14C   [8]  00 05 FF FE 0A A0 80 00
  can1  14D   [8]  3C 00 3C 00 00 00 00 00
  can1  14E   [8]  A8 6A 86 A8 60 00 00 00
  can1  14F   [8]  00 00 FF E0 00 00 00 00
  can1  29A   [8]  00 00 00 00 00 00 03 FC
  can1  2B7   [5]  00 E0 FF FE 94
  can1  500   [5]  02 0A 45 22 CD
  can1  17A   [8]  FF FF FF AA 00 C0 31 A3
  can1  14B   [8]  FF E0 00 05 FF FE 00 00
  can1  0C2   [7]  80 33 80 00 89 00 43
  can1  0C6   [8]  80 33 80 00 7F FF AC A2
  can1  186   [7]  19 50 32 03 20 00 20
  can1  242   [7]  00 00 FF EF FE 00 0C
  can1  1FD   [8]  1A 40 07 FF 7F C8 50 00
  can1  1F6   [8]  DE 20 00 32 00 FF 00 FF
  can1  1F8   [8]  51 04 80 1F FE 00 00 0D
  can1  17E   [8]  FF FF FF 00 FF 40 00 FF
  can1  18A   [6]  FF F0 00 06 40 00
  can1  439   [2]  3E 80
  can1  130   [8]  00 88 6F FE 00 9F FE 6D
  can1  12E   [8]  C9 7F FF 7F F0 FF FF 00
  can1  14A   [8]  FF FE 14 00 7C FF 04 00
  can1  14C   [8]  00 05 FF FE 0A A0 80 00
  can1  14D   [8]  3C 00 3C 00 00 00 00 00
  can1  14E   [8]  A8 6A 86 A8 60 00 00 00
  can1  14F   [8]  00 00 FF E0 00 00 00 00
  can1  247   [7]  00 00 FF EF FE 00 0C
  can1  29C   [8]  00 00 00 00 FF FF 00 00
  can1  357   [7]  00 00 00 00 00 00 00
  can1  354   [8]  00 00 00 00 00 00 00 00
  can1  17A   [8]  FF FF FF AA 00 C0 31 A3
  can1  186   [7]  19 50 32 03 20 00 20
  can1  66A   [6]  00 FE 00 00 00 00
  can1  14B   [8]  FF E0 00 06 FF FE 00 00
  can1  0C2   [7]  80 33 80 00 8A 00 42
  can1  0C6   [8]  80 33 80 00 7F FF AE A0
  can1  1F6   [8]  DE 20 00 32 00 FF 00 FF
  can1  212   [6]  FE 1D C0 4C FF FF
  can1  653   [4]  00 59 58 00
  can1  646   [8]  42 A7 03 9B 84 E2 00 70
  can1  1F8   [8]  4F 04 80 1F FE 00 02 0D
  can1  17E   [8]  FF FF FF 00 FF 40 00 FF
  can1  18A   [6]  FF F0 00 06 40 00
  can1  652   [8]  40 0F FF 15 40 7D 55 51
  can1  5DA   [7]  3C FF 00 FF FF FF FF
  can1  130   [8]  00 A8 6F FE 00 9F FE 4D
  can1  14A   [8]  FF FE 14 00 7C FF 05 00
  can1  12E   [8]  C9 7F FE 7F F0 FF FF 00
  can1  14C   [8]  00 05 FF FE 0A A0 80 00
  can1  14D   [8]  3C 00 3C 00 00 00 00 00
  can1  14E   [8]  A8 6A 86 A8 60 00 00 00
  can1  14F   [8]  00 00 FF E0 00 00 00 00
  can1  29A   [8]  00 00 00 00 00 00 04 FB
  can1  2B7   [5]  00 E0 FF FE 94
  can1  5E9   [8]  00 38 00 00 00 08 00 02
  can1  657   [2]  C4 C4
  can1  17A   [8]  FF FF FF AA 00 C0 31 A3
  can1  14B   [8]  FF E0 00 07 FF FE 00 00
  can1  0C2   [7]  80 33 80 00 8B 00 41
  can1  0C6   [8]  80 33 80 00 7F FF B0 9E
  can1  186   [7]  19 50 32 03 20 00 20
  can1  1F6   [8]  DE 20 00 32 00 FF 00 FF
  can1  242   [7]  00 00 FF EF FE 00 0C
  can1  1F8   [8]  4D 04 80 1F FE 00 04 0D
  can1  17E   [8]  FF FF FF 00 FF 40 00 FF
  can1  18A   [6]  FF F0 00 06 40 00
  can1  391   [6]  00 00 80 00 C0 00
  can1  650   [6]  41 55 C4 16 C0 28
  can1  130   [8]  00 C8 6F FE 00 9F FE 2D
  can1  12E   [8]  C9 7F FE 7F F0 FF FF 00
  can1  14A   [8]  FF FE 14 00 7C FF 06 00
  can1  14C   [8]  00 05 FF FE 0A A0 80 00
  can1  14D   [8]  3C 00 3C 00 00 00 00 00
  can1  14E   [8]  A8 6A 86 A8 60 00 00 00
  can1  14F   [8]  00 00 FF E0 00 00 00 00
  can1  247   [7]  00 00 FF EF FE 00 0C
  can1  29C   [8]  00 00 00 00 FF FF 00 00
  can1  357   [7]  00 00 00 00 00 00 00
  can1  352   [4]  5C 00 00 00
  can1  17A   [8]  FF FF FF AA 00 C0 31 A3
  can1  186   [7]  19 50 32 03 20 00 20
  can1  427   [8]  97 FF FF C7 FF 07 21 90
  can1  14B   [8]  FF E0 00 08 FF FE 00 00
  can1  0C2   [7]  80 33 80 00 8C 00 40
  can1  0C6   [8]  80 33 80 00 7F FF B2 9C
  can1  1F6   [8]  DE 20 00 32 00 FF 00 FF
  can1  212   [6]  FE 1D C0 4C FF FF
  can1  1F8   [8]  4B 04 80 1F FE 00 06 0D
  can1  17E   [8]  FF FF FF 00 FF 40 00 FF
  can1  18A   [6]  FF F0 00 06 40 00
  can1  130   [8]  00 E8 6F FE 00 9F FE 0D
  can1  14A   [8]  FF FE 14 00 7C FF 07 00
  can1  12E   [8]  C9 7F FE 7F E0 FF FF 00
  can1  14C   [8]  00 05 FF FE 0A A0 80 00
  can1  14D   [8]  3C 00 3C 00 00 00 00 00
  can1  14E   [8]  A8 6A 86 A8 60 00 00 00
  can1  14F   [8]  00 00 FF E0 00 00 00 00
  can1  29A   [8]  00 00 00 00 00 00 05 FA
  can1  2B7   [5]  00 E0 FF FE 94
  can1  5D7   [7]  00 00 00 0B 3A 30 C0
  can1  5EF   [3]  00 80 00
  can1  35C   [8]  F4 C6 22 2B 2D 3F 62 28
  can1  552   [2]  01 04
  can1  5DE   [8]  00 0A 00 00 01 00 00 50
  can1  17A   [8]  FF FF FF AA 00 C0 31 A3
  can1  0C2   [7]  80 33 80 00 8D 00 3F
  can1  186   [7]  19 50 32 03 20 00 20
  can1  62C   [1]  00
  can1  14B   [8]  FF E0 00 09 FF FE 00 00
  can1  0C6   [8]  80 33 80 00 7F FF B4 9A
  can1  242   [7]  00 00 FF EF FE 00 0C
  can1  42E   [8]  5D 27 D0 DD E4 07 80 83
  can1  563   [2]  19 3C
  can1  1F6   [8]  DE 20 00 32 00 FF 00 FF
  can1  1F8   [8]  49 04 80 1F FE 00 08 0D
  can1  17E   [8]  FF FF FF 00 FF 40 00 FF
  can1  18A   [6]  FF F0 00 06 40 00
  can1  3F7   [2]  08 10
  can1  130   [8]  00 08 6F FE 00 9F FE ED
  can1  14A   [8]  FF FE 14 00 7C FF 08 00
  can1  12E   [8]  C9 7F FE 7F E0 FF FF 00
  can1  14C   [8]  00 05 FF FE 0A A0 80 00
  can1  14D   [8]  3C 00 3C 00 00 00 00 00
  can1  14E   [8]  A8 6A 86 A8 60 00 00 00
  can1  14F   [8]  00 00 FF E0 00 00 00 00
  can1  247   [7]  00 00 FF EF FE 00 0C
  can1  29C   [8]  00 00 00 00 FF FF 00 00
  can1  357   [7]  00 00 00 00 00 00 00
  can1  354   [8]  00 00 00 00 00 00 00 00
  can1  66D   [2]  AA 80
  can1  5EE   [8]  00 00 02 19 55 80 00 90
  can1  17A   [8]  FF FF FF AA 00 C0 31 A3
  can1  186   [7]  19 50 32 03 20 00 20
  can1  1F6   [8]  DE 20 00 32 00 FF 00 FF
  can1  0C2   [7]  80 33 80 00 8E 00 3E
  can1  14B   [8]  FF E0 00 0A FF FE 00 00
  can1  0C6   [8]  80 33 80 00 7F FF B6 98
  can1  212   [6]  FE 1D C0 4C FF FF
  can1  218   [1]  9C
  can1  4FA   [2]  00 00
  can1  671   [2]  40 00
  can1  6F8   [5]  4C 10 DA AA FF
  can1  511   [7]  00 11 F5 A2 B4 DC 60
  can1  1F8   [8]  47 04 80 1F FE 00 0A 0D
  can1  17E   [8]  FF FF FF 00 FF 40 00 FF
  can1  18A   [6]  FF F0 00 06 40 00
  can1  130   [8]  00 28 6F FE 00 9F FE CD
  can1  14A   [8]  FF FE 14 00 7C FF 09 00
  can1  12E   [8]  C9 7F FE 7F E0 FF FF 00
  can1  14C   [8]  00 05 FF FE 0A A0 80 00
  can1  14D   [8]  3C 00 3C 00 00 00 00 00
  can1  14E   [8]  A8 6A 86 A8 60 00 00 00
  can1  14F   [8]  00 00 FF E0 00 00 00 00
  can1  29A   [8]  00 00 00 00 00 00 06 F9
  can1  2B7   [5]  00 E0 FF FE 94
  can1  666   [4]  30 00 00 00
  can1  17A   [8]  FF FF FF AA 00 C0 31 A3
  can1  14B   [8]  FF E0 00 0B FF FE 00 00
  can1  0C2   [7]  80 33 80 00 8F 00 3D
  can1  0C6   [8]  80 33 80 00 7F FF B8 96
  can1  186   [7]  19 50 32 03 20 00 20
  can1  1F6   [8]  DE 20 00 32 00 FF 00 FF
  can1  242   [7]  00 00 FF EF FE 00 0C
  can1  68B   [2]  F2 00
  can1  4F8   [5]  48 10 00 00 00
  can1  1F8   [8]  45 04 80 1F FE 00 0C 0D
  can1  17E   [8]  FF FF FF 00 FF 40 00 FF
  can1  18A   [6]  FF F0 00 06 40 00
  can1  130   [8]  00 48 6F FE 00 9F FE AD
  can1  12E   [8]  C9 7F FE 7F E0 FF FF 00
  can1  14A   [8]  FF FE 14 00 7C FF 0A 00
  can1  14C   [8]  00 05 FF FE 0A A0 80 00
  can1  14D   [8]  3C 00 3C 00 00 00 00 00
  can1  14E   [8]  A8 6A 86 A8 60 00 00 00
  can1  14F   [8]  00 00 FF E0 00 00 00 00
  can1  247   [7]  00 00 FF EF FE 00 0C
  can1  29C   [8]  00 00 00 00 FF FF 00 00
  can1  357   [7]  00 00 00 00 00 00 00
  can1  352   [4]  5C 00 00 00
  can1  5DF   [1]  A8
  can1  17A   [8]  FF FF FF AA 00 C0 31 A3
  can1  186   [7]  19 50 32 03 20 00 20
  can1  1F6   [8]  DE 20 00 32 00 FF 00 FF
  can1  14B   [8]  FF E0 00 0C FF FE 00 00
  can1  0C2   [7]  80 33 80 00 80 00 4C
  can1  0C6   [8]  80 33 80 00 7F FF BA 94
  can1  212   [6]  FE 1D C0 4C FF FF
  can1  1F8   [8]  43 04 80 1F FE 00 0E 0D
  can1  17E   [8]  FF FF FF 00 FF 40 00 FF
  can1  18A   [6]  FF F0 00 06 40 00
  can1  391   [6]  00 00 80 00 C0 00
  can1  42A   [8]  02 71 00 36 6A 00 E0 00
  can1  430   [8]  00 00 00 18 A0 95 A5 60
  can1  668   [2]  42 06
  can1  130   [8]  00 68 6F FE 00 9F FE 8D
  can1  12E   [8]  C8 7F FE 7F F0 FF FF 00
  can1  14A   [8]  FF FE 14 00 7C FF 0B 00
  can1  14C   [8]  00 05 FF FE 0A A0 80 00
  can1  14D   [8]  3C 00 3C 00 00 00 00 00
  can1  14E   [8]  A8 6A 86 A8 60 00 00 00
  can1  14F   [8]  00 00 FF E0 00 00 00 00
  can1  29A   [8]  00 00 00 00 00 00 07 F8
  can1  2B7   [5]  00 E0 FF FE 94
  can1  699   [8]  24 2A 09 00 BF 00 06 84
  can1  17A   [8]  FF FF FF AA 00 C0 31 A3
  can1  14B   [8]  FF E0 00 0D FF FE 00 00
  can1  0C2   [7]  80 33 80 00 81 00 4B
  can1  0C6   [8]  80 33 80 00 7F FF BC 92
  can1  186   [7]  19 50 32 03 20 00 20
  can1  242   [7]  00 00 FF EF FE 00 0C
  can1  65B   [6]  00 00 00 80 21 04
  can1  1F6   [8]  DE 20 00 32 00 FF 00 FF
  can1  1F8   [8]  51 04 80 1F FE 00 00 0D
  can1  17E   [8]  FF FF FF 00 FF 40 00 FF
  can1  18A   [6]  FF F0 00 06 40 00
  can1  432   [8]  50 40 02 0B CC 40 00 58
  can1  130   [8]  00 88 6F FE 00 9F FE 6D
  can1  14A   [8]  FF FE 14 00 7C FF 0C 00
  can1  12E   [8]  C8 7F FE 7F F0 FF FF 00
  can1  14C   [8]  00 05 FF FE 0A A0 80 00
  can1  14D   [8]  3C 00 3C 00 00 00 00 00
  can1  14E   [8]  A8 6A 86 A8 60 00 00 00
  can1  14F   [8]  00 00 FF E0 00 00 00 00
  can1  247   [7]  00 00 FF EF FE 00 0C
  can1  29C   [8]  00 00 00 00 FF FF 00 00
  can1  357   [7]  00 00 00 00 00 00 00
  can1  354   [8]  00 00 00 00 00 00 00 00
  can1  656   [8]  07 FF 07 FE FF C0 39 00
  can1  3B7   [5]  FF FF 16 4F FE
  can1  17A   [8]  FF FF FF AA 00 C0 31 A3
  can1  186   [7]  19 50 32 03 20 00 20
  can1  1F6   [8]  DE 20 00 32 00 FF 00 FF
  can1  0C2   [7]  80 33 80 00 82 00 4A
  can1  14B   [8]  FF E0 00 0E FF FE 00 00
  can1  0C6   [8]  80 33 80 00 7F FF BE 90
  can1  212   [6]  FE 1D C0 4C FF FF
  can1  634   [3]  80 00 52
  can1  1F8   [8]  4F 04 80 1F FE 00 02 0D
  can1  17E   [8]  FF FF FF 00 FF 40 00 FF
  can1  18A   [6]  FF F0 00 06 40 00
  can1  638   [6]  50 03 C1 60 00 00
  can1  130   [8]  00 A8 6F FE 00 9F FE 4D
  can1  14A   [8]  FF FE 14 00 7C FF 0D 00
  can1  12E   [8]  C8 7F FE 7F F0 FF FF 00
  can1  14C   [8]  00 05 FF FE 0A A0 80 01
  can1  14D   [8]  3C 00 3C 00 00 00 00 00
  can1  14E   [8]  A8 6A 86 A8 60 00 00 00
  can1  14F   [8]  00 00 FF E0 00 00 00 00
  can1  29A   [8]  00 00 00 00 00 00 08 F7
  can1  2B7   [5]  00 E0 FF FE 94
  can1  500   [5]  02 F4 6E 3E 51
  can1  17A   [8]  FF FF FF AA 00 C0 31 A3
  can1  14B   [8]  FF E0 00 0F FF FE 00 00
  can1  0C2   [7]  80 33 80 00 83 00 49
  can1  0C6   [8]  80 33 80 00 7F FF A0 AE
  can1  186   [7]  19 50 32 03 20 00 20
  can1  242   [7]  00 00 FF EF FE 00 0C
  can1  1FD   [8]  19 40 07 FF 7F C8 50 00
  can1  1F6   [8]  DE 20 00 32 00 FF 00 FF
  can1  1F8   [8]  4D 04 80 1F FE 00 04 0D
  can1  17E   [8]  FF FF FF 00 FF 40 00 FF
  can1  18A   [6]  FF F0 00 06 40 00
  can1  439   [2]  3E 80
  can1  3F7   [2]  08 10
  can1  130   [8]  00 C8 6F FE 00 9F FE 2D
  can1  14A   [8]  FF FE 14 00 7C FF 0E 00
  can1  12E   [8]  C8 7F FE 7F F0 FF FF 00
  can1  14C   [8]  00 05 FF FE 0A A1 80 00
  can1  14D   [8]  3C 00 3C 00 00 00 00 00
  can1  14E   [8]  A8 6A 86 A8 60 00 00 00
  can1  14F   [8]  00 00 FF E0 00 00 00 00
  can1  247   [7]  00 00 FF EF FE 00 0C
  can1  29C   [8]  00 00 00 00 FF FF 00 00
  can1  357   [7]  00 00 00 00 00 00 00
  can1  352   [4]  5C 00 00 00
  can1  17A   [8]  FF FF FF AA 00 C0 31 A3
  can1  186   [7]  19 50 32 03 20 00 20
  can1  66A   [6]  00 FE 00 00 00 00
  can1  14B   [8]  FF E0 00 00 FF FE 00 00
  can1  0C2   [7]  80 33 80 00 84 00 48
  can1  0C6   [8]  80 33 80 00 7F FF A2 AC
  can1  1F6   [8]  DE 20 00 32 00 FF 00 FF
  can1  212   [6]  FE 1D C0 4C FF FF
  can1  653   [4]  00 59 58 00
  can1  1F8   [8]  4B 04 80 1F FE 00 06 0D
  can1  17E   [8]  FF FF FF 00 FF 40 00 FF
  can1  18A   [6]  FF F0 00 06 40 00
  can1  652   [8]  40 0F FF 15 40 7D 55 51
  can1  5DA   [7]  3C FF 00 FF FF FF FF
  can1  130   [8]  00 E8 6F FE 00 9F FE 0D
  can1  14A   [8]  FF FE 14 00 7C FF 0F 00
  can1  12E   [8]  C9 7F FE 7F F0 FF FF 00
  can1  14C   [8]  00 05 FF FE 0A A1 80 00
  can1  14D   [8]  3C 00 3C 00 00 00 00 00
  can1  14E   [8]  A8 6A 86 A8 60 00 00 00
  can1  14F   [8]  00 00 FF E0 00 00 00 00
  can1  29A   [8]  00 00 00 00 00 00 09 F6
  can1  2B7   [5]  00 E0 FF FE 94
  can1  5E9   [8]  00 38 00 00 00 08 00 02
  can1  657   [2]  C4 C4
  can1  17A   [8]  FF FF FF AA 00 C0 31 A3
  can1  14B   [8]  FF E0 00 01 FF FE 00 00
  can1  0C2   [7]  80 33 80 00 85 00 47
  can1  0C6   [8]  80 33 80 00 7F FF A4 AA
  can1  186   [7]  19 50 32 03 20 00 20
  can1  1F6   [8]  DE 20 00 32 00 FF 00 FF
  can1  242   [7]  00 00 FF EF FE 00 0C
  can1  1F8   [8]  49 04 80 1F FE 00 08 0D
  can1  17E   [8]  FF FF FF 00 FF 40 00 FF
  can1  18A   [6]  FF F0 00 06 40 00
  can1  650   [6]  41 55 C4 16 C0 28
  can1  391   [6]  00 00 80 00 C0 00
  can1  130   [8]  00 08 6F FE 00 9F FE ED
  can1  12E   [8]  C9 7F FE 7F F0 FF FF 00
  can1  14A   [8]  FF FE 14 00 7C FF 00 00
  can1  14C   [8]  00 05 FF FE 0A A2 80 00
  can1  14D   [8]  3C 00 3C 00 00 00 00 00
  can1  14E   [8]  A8 6A 86 A8 60 00 00 00
  can1  14F   [8]  00 00 FF E0 00 00 00 00
  can1  247   [7]  00 00 FF EF FE 00 0C
  can1  29C   [8]  00 00 00 00 FF FF 00 00
  can1  357   [7]  00 00 00 00 00 00 00
  can1  354   [8]  00 00 00 00 00 00 00 00
  can1  17A   [8]  FF FF FF AA 00 C0 31 A3
  can1  186   [7]  19 50 32 03 20 00 20
  can1  14B   [8]  FF E0 00 02 FF FE 00 00
  can1  0C2   [7]  80 33 80 00 86 00 46
  can1  0C6   [8]  80 33 80 00 7F FF A6 A8
  can1  427   [8]  97 FF FF C7 FF 07 21 90
  can1  212   [6]  FE 1D C0 4C FF FF
  can1  1F6   [8]  DE 20 00 32 00 FF 00 FF
  can1  1F8   [8]  47 04 80 1F FE 00 0A 0D
  can1  17E   [8]  FF FF FF 00 FF 40 00 FF
  can1  18A   [6]  FF F0 00 06 40 00
  can1  130   [8]  00 28 6F FE 00 9F FE CD
  can1  12E   [8]  C9 7F FE 7F F0 FF FF 00
  can1  14A   [8]  FF FE 14 00 7C FF 01 00
  can1  14C   [8]  00 05 FF FE 0A A0 80 00
  can1  14D   [8]  3C 00 3C 00 00 00 00 00
  can1  14E   [8]  A8 6A 86 A8 60 00 00 00
  can1  14F   [8]  00 00 FF E0 00 00 00 00
  can1  29A   [8]  00 00 00 00 00 00 0A F5
  can1  2B7   [5]  00 E0 FF FE 94
  can1  5D7   [7]  00 00 00 0B 3A 30 C0
  can1  5EF   [3]  00 80 00
  can1  35C   [8]  F4 C6 22 2B 2D 3F 62 28
  can1  552   [2]  01 04
  can1  5DE   [8]  00 0A 00 00 01 00 00 50
  can1  17A   [8]  FF FF FF AA 00 C0 31 A3
  can1  0C2   [7]  80 33 80 00 87 00 45
  can1  186   [7]  19 50 32 03 20 00 20
  can1  62C   [1]  00
  can1  14B   [8]  FF E0 00 03 FF FE 00 00
  can1  0C6   [8]  80 33 80 00 7F FF A8 A6
  can1  242   [7]  00 00 FF EF FE 00 0C
  can1  42E   [8]  5D 27 D0 DD E4 07 80 83
  can1  563   [2]  20 AC
  can1  1F6   [8]  DE 20 00 32 00 FF 00 FF
  can1  1F8   [8]  45 04 80 1F FE 00 0C 0D
  can1  17E   [8]  FF FF FF 00 FF 40 00 FF
  can1  18A   [6]  FF F0 00 06 40 00
  can1  130   [8]  00 48 6F FE 00 9F FE AD
  can1  12E   [8]  C9 7F FE 7F F0 FF FF 00
  can1  14A   [8]  FF FE 14 00 7C FF 02 00
  can1  14C   [8]  00 05 FF FE 0A A0 80 00
  can1  14D   [8]  3C 00 3C 00 00 00 00 00
  can1  14E   [8]  A8 6A 86 A8 60 00 00 00
  can1  14F   [8]  00 00 FF E0 00 00 00 00
  can1  247   [7]  00 00 FF EF FE 00 0C
  can1  29C   [8]  00 00 00 00 FF FF 00 00
  can1  357   [7]  00 00 00 00 00 00 00
  can1  352   [4]  5C 00 00 00
  can1  66D   [2]  AA 80
  can1  5EE   [8]  00 00 02 19 55 80 00 90
  can1  17A   [8]  FF FF FF AA 00 C0 31 A3
  can1  186   [7]  19 50 32 03 20 00 20
  can1  1F6   [8]  DE 20 00 32 00 FF 00 FF
  can1  0C2   [7]  80 33 80 00 88 00 44
  can1  14B   [8]  FF E0 00 04 FF FE 00 00
  can1  0C6   [8]  80 33 80 00 7F FF AA A4
  can1  212   [6]  FE 1D C0 4C FF FF
  can1  218   [1]  9C
  can1  4FA   [2]  00 00
  can1  671   [2]  40 00
  can1  6F8   [5]  4C 10 DA AA FF
  can1  511   [7]  00 50 BE 5B 1F E9 43
  can1  1F8   [8]  43 04 80 1F FE 00 0E 0D
  can1  17E   [8]  FF FF FF 00 FF 40 00 FF
  can1  18A   [6]  FF F0 00 06 40 00
  can1  130   [8]  00 68 6F FE 00 9F FE 8D
  can1  14A   [8]  FF FE 14 00 7C FF 03 00
  can1  12E   [8]  C8 7F FE 7F E0 FF FF 00
  can1  14C   [8]  00 05 FF FE 0A A0 80 00
  can1  14D   [8]  3C 00 3C 00 00 00 00 00
  can1  14E   [8]  A8 6A 86 A8 60 00 00 00
  can1  14F   [8]  00 00 FF E0 00 00 00 00
  can1  29A   [8]  00 00 00 00 00 00 0B F4
  can1  2B7   [5]  00 E0 FF FE 94
  can1  666   [4]  30 00 00 00
  can1  17A   [8]  FF FF FF AA 00 C0 31 A3
  can1  14B   [8]  FF E0 00 05 FF FE 00 00
  can1  0C2   [7]  80 33 80 00 89 00 43
  can1  0C6   [8]  80 33 80 00 7F FF AC A2
  can1  186   [7]  19 50 32 03 20 00 20
  can1  242   [7]  00 00 FF EF FE 00 0C
  can1  1F6   [8]  DE 20 00 32 00 FF 00 FF
  can1  68B   [2]  F2 00
  can1  4F8   [5]  48 10 00 00 00
  can1  1F8   [8]  51 04 80 1F FE 00 00 0D
  can1  17E   [8]  FF FF FF 00 FF 40 00 FF
  can1  18A   [6]  FF F0 00 06 40 00
  can1  3F7   [2]  08 10
  can1  130   [8]  00 88 6F FE 00 9F FE 6D
  can1  12E   [8]  C8 7F FE 7F E0 FF FF 00
  can1  14A   [8]  FF FE 14 00 7C FF 04 00
  can1  14C   [8]  00 05 FF FE 0A A0 80 00
  can1  14D   [8]  3C 00 3C 00 00 00 00 00
  can1  14E   [8]  A8 6A 86 A8 60 00 00 00
  can1  14F   [8]  00 00 FF E0 00 00 00 00
  can1  247   [7]  00 00 FF EF FE 00 0C
  can1  29C   [8]  00 00 00 00 FF FF 00 00
  can1  357   [7]  00 00 00 00 00 00 00
  can1  354   [8]  00 00 00 00 00 00 00 00
  can1  5DF   [1]  A8
  can1  17A   [8]  FF FF FF AA 00 C0 31 A3
  can1  186   [7]  19 50 32 03 20 00 20
  can1  1F6   [8]  DE 20 00 32 00 FF 00 FF
  can1  14B   [8]  FF E0 00 06 FF FE 00 00
  can1  0C2   [7]  80 33 80 00 8A 00 42
  can1  0C6   [8]  80 33 80 00 7F FF AE A0
  can1  212   [6]  FE 1D C0 4C FF FF
  can1  1F8   [8]  4F 04 80 1F FE 00 02 0D
  can1  17E   [8]  FF FF FF 00 FF 40 00 FF
  can1  18A   [6]  FF F0 00 06 40 00
  can1  391   [6]  00 00 80 00 C0 00
  can1  42A   [8]  02 71 00 36 6A 00 E0 00
  can1  430   [8]  00 00 00 18 A0 95 A5 70
  can1  130   [8]  00 A8 6F FE 00 9F FE 4D
  can1  14A   [8]  FF FE 14 00 7C FF 05 00
  can1  12E   [8]  C8 7F FE 7F D0 FF FF 00
  can1  14C   [8]  00 05 FF FE 0A A0 80 00
  can1  14D   [8]  3C 00 3C 00 00 00 00 00
  can1  14E   [8]  A8 6A 86 A8 60 00 00 00
  can1  14F   [8]  00 00 FF E0 00 00 00 00
  can1  29A   [8]  00 00 00 00 00 00 0C F3
  can1  2B7   [5]  00 E0 FF FE 94
  can1  668   [2]  42 06
  can1  17A   [8]  FF FF FF AA 00 C0 31 A3
  can1  14B   [8]  FF E0 00 07 FF FE 00 00
  can1  0C2   [7]  80 33 80 00 8B 00 41
  can1  0C6   [8]  80 33 80 00 7F FF B0 9E
  can1  186   [7]  19 50 32 03 20 00 20
  can1  242   [7]  00 00 FF EF FE 00 0C
  can1  65B   [6]  00 00 00 80 21 04
  can1  1F6   [8]  DE 20 00 32 00 FF 00 FF
  can1  1F8   [8]  4D 04 80 1F FE 00 04 0D
  can1  17E   [8]  FF FF FF 00 FF 40 00 FF
  can1  18A   [6]  FF F0 00 06 40 00
  can1  432   [8]  50 40 02 0B CC 40 00 58
  can1  130   [8]  00 C8 6F FE 00 9F FE 2D
  can1  14A   [8]  FF FE 14 00 7C FF 06 00
  can1  12E   [8]  C8 7F FE 7F D0 FF FF 00
  can1  14C   [8]  00 05 FF FE 0A A0 80 00
  can1  14D   [8]  3C 00 3C 00 00 00 00 00
  can1  14E   [8]  A8 6A 86 A8 60 00 00 00
  can1  14F   [8]  00 00 FF E0 00 00 00 00
  can1  247   [7]  00 00 FF EF FE 00 0C
  can1  29C   [8]  00 00 00 00 FF FF 00 00
  can1  357   [7]  00 00 00 00 00 00 00
  can1  352   [4]  5C 00 00 00
  can1  656   [8]  07 FF 07 FE FF C0 39 00
  can1  3B7   [5]  FF FF 16 4F FE
  can1  17A   [8]  FF FF FF AA 00 C0 31 A3
  can1  186   [7]  19 50 32 03 20 00 20
  can1  1F6   [8]  DE 20 00 32 00 FF 00 FF
  can1  14B   [8]  FF E0 00 08 FF FE 00 00
  can1  0C2   [7]  80 33 80 00 8C 00 40
  can1  0C6   [8]  80 33 80 00 7F FF B2 9C
  can1  212   [6]  FE 1D C0 4C FF FF
  can1  634   [3]  80 00 52
  can1  1F8   [8]  4B 04 80 1F FE 00 06 0D
  can1  17E   [8]  FF FF FF 00 FF 40 00 FF
  can1  18A   [6]  FF F0 00 06 40 00
  can1  638   [6]  50 03 C1 60 00 00
  can1  130   [8]  00 E8 6F FE 00 9F FE 0D
  can1  14A   [8]  FF FE 14 00 7C FF 07 00
  can1  12E   [8]  C9 7F FF 7F E0 FF FF 00
  can1  14C   [8]  00 05 FF FE 0A A0 80 00
  can1  14D   [8]  3C 00 3C 00 00 00 00 00
  can1  14E   [8]  A8 6A 86 A8 60 00 00 00
  can1  14F   [8]  00 00 FF E0 00 00 00 00
  can1  29A   [8]  00 00 00 00 00 00 0D F2
  can1  2B7   [5]  00 E0 FF FE 94
  can1  500   [5]  02 1E 7A F4 77
  can1  17A   [8]  FF FF FF AA 00 C0 31 A3
  can1  14B   [8]  FF E0 00 09 FF FE 00 00
  can1  0C2   [7]  80 33 80 00 8D 00 3F
  can1  0C6   [8]  80 33 80 00 7F FF B4 9A
  can1  186   [7]  19 50 32 03 20 00 20
  can1  242   [7]  00 00 FF EF FE 00 0C
  can1  1FD   [8]  19 40 07 FF 7F C8 50 00
  can1  1F6   [8]  DE 20 00 32 00 FF 00 FF
  can1  1F8   [8]  49 04 80 1F FE 00 08 0D
