  can0  0C1   [5]  03 02 24 00 D6
  can0  121   [8]  00 01 12 4E 16 11 0C D0
  can0  122   [7]  FF FE 08 C3 E9 32 00
  can0  0C1   [5]  04 02 24 00 D5
  can0  121   [8]  00 01 12 4E 16 11 0C D0
  can0  122   [7]  FF FE 08 B3 E9 32 00
  can0  0C1   [5]  05 02 24 00 D4
  can0  121   [8]  00 01 12 4E 16 11 0C D0
  can0  122   [7]  FF FE 08 B3 E9 32 00
  can0  0C1   [5]  06 02 24 00 D3
  can0  0D9   [4]  7D 7C 00 18
  can0  121   [8]  00 01 12 4E 16 11 0C D0
  can0  122   [7]  FF FE 08 93 E9 32 00
  can0  0C1   [5]  07 02 24 00 D2
  can0  121   [8]  00 01 12 4E 16 11 0C D0
  can0  122   [7]  FF FE 08 93 E9 32 00
  can0  0C1   [5]  08 02 24 00 D1
  can0  121   [8]  00 01 12 4E 16 11 0C D0
  can0  122   [7]  FF FE 08 93 E9 32 00
  can0  0C1   [5]  09 02 24 00 D0
  can0  121   [8]  00 01 12 4E 16 11 0C D0
  can0  122   [7]  FF FE 08 93 E9 32 00
  can0  0C1   [5]  0A 02 24 00 CF
  can0  121   [8]  00 01 12 4E 16 11 0C D0
  can0  122   [7]  FF FE 08 93 E9 32 00
  can0  0C1   [5]  0B 02 24 00 CE
  can0  121   [8]  00 01 12 4E 16 11 0C D0
  can0  122   [7]  FF FE 08 93 E9 32 00
  can0  0C1   [5]  0C 02 24 00 CD
  can0  121   [8]  00 01 12 4E 16 11 0C D0
  can0  122   [7]  FF FE 08 93 E9 32 00
  can0  0C1   [5]  0D 02 24 00 CC
  can0  121   [8]  00 01 12 4E 16 11 0C D0
  can0  122   [7]  FF FE 08 93 E9 32 00
  can0  121   [8]  00 01 12 4E 16 11 0C D0
  can0  0C1   [5]  0E 02 24 00 CB
  can0  122   [7]  FF FE 08 93 E9 32 00
  can0  0C1   [5]  0F 02 24 00 CA
  can0  121   [8]  00 01 12 4E 16 11 0C D0
  can0  122   [7]  FF FE 08 B3 E9 32 00
  can0  0C1   [5]  10 02 24 00 C9
  can0  0D9   [4]  7D 7C 00 18
  can0  121   [8]  00 01 12 4E 16 11 0C D0
  can0  122   [7]  FF FE 08 93 E9 32 00
  can0  0C1   [5]  11 02 24 00 C8
  can0  121   [8]  00 01 12 4E 16 11 0C D0
  can0  122   [7]  FF FE 08 93 E9 32 00
  can0  0C1   [5]  12 02 24 00 C7
  can0  121   [8]  00 01 12 4E 16 11 0C D0
  can0  122   [7]  FF FE 08 93 E9 32 00
  can0  0C1   [5]  13 02 24 00 C6
  can0  121   [8]  00 01 12 4E 16 11 0C D0
  can0  122   [7]  FF FE 08 93 E9 32 00
  can0  121   [8]  00 01 12 4E 16 11 0C D0
  can0  0C1   [5]  14 02 24 00 C5
  can0  122   [7]  FF FE 08 93 E9 32 00
  can0  121   [8]  00 01 12 4E 16 11 0C D0
  can0  0C1   [5]  15 02 24 00 C4
  can0  122   [7]  FF FE 08 93 E9 32 00
  can0  0C1   [5]  16 02 24 00 C3
  can0  121   [8]  00 01 12 4E 16 11 0C D0
  can0  122   [7]  FF FE 08 93 E9 32 00
  can0  121   [8]  00 01 12 4E 16 11 0C D0
  can0  0C1   [5]  17 02 24 00 C2
  can0  122   [7]  FF FE 08 93 E9 32 00
  can0  0C1   [5]  18 02 24 00 C1
  can0  121   [8]  00 01 12 4E 16 11 0C D0
  can0  122   [7]  FF FE 08 93 E9 32 00
  can0  0C1   [5]  19 02 24 00 C0
  can0  121   [8]  00 01 12 4E 16 11 0C D0
  can0  122   [7]  FF FE 08 E3 E9 32 00
  can0  0C1   [5]  1A 02 24 00 BF
  can0  0D9   [4]  7D 7C 00 18
  can0  121   [8]  00 01 12 4E 16 11 0C D0
  can0  122   [7]  FF FE 08 E3 E9 32 00
  can0  0C1   [5]  1B 02 24 00 BE
  can0  121   [8]  00 01 12 4E 16 11 0C D0
  can0  122   [7]  FF FE 08 C3 E9 32 00
  can0  0C1   [5]  1C 02 24 00 BD
  can0  121   [8]  00 01 12 4E 16 11 0C D0
  can0  122   [7]  FF FE 08 93 E9 32 00
  can0  0C1   [5]  1D 02 24 00 BC
  can0  121   [8]  00 01 12 4E 16 11 0C D0
  can0  122   [7]  FF FE 08 93 E9 32 00
  can0  0C1   [5]  1E 02 24 00 BB
  can0  121   [8]  00 01 12 4E 16 11 0C D0
  can0  122   [7]  FF FE 08 93 E9 32 00
  can0  121   [8]  00 01 12 4E 16 11 0C D0
  can0  0C1   [5]  1F 02 24 00 BA
  can0  122   [7]  FF FE 08 93 E9 32 00
  can0  0C1   [5]  20 02 24 00 B9
  can0  121   [8]  00 01 12 4E 16 11 0C D0
  can0  122   [7]  FF FE 08 93 E9 32 00
  can0  0C1   [5]  21 02 24 00 B8
  can0  121   [8]  00 01 12 4E 16 11 0C D0
  can0  122   [7]  FF FE 08 C3 E9 32 00
  can0  0C1   [5]  22 02 24 00 B7
  can0  121   [8]  00 01 12 4E 16 11 0C D0
  can0  122   [7]  FF FE 09 13 E9 32 00
  can0  0C1   [5]  23 02 24 00 B6
  can0  121   [8]  00 01 12 4E 16 11 0C D0
  can0  122   [7]  FF FE 08 A3 E9 32 00
  can0  0C1   [5]  24 02 24 00 B5
  can0  0D9   [4]  7D 7C 00 18
  can0  121   [8]  00 01 12 4E 16 11 0C D0
  can0  122   [7]  FF FE 08 93 E9 32 00
  can0  0C1   [5]  25 02 24 00 B4
  can0  121   [8]  00 01 12 4E 16 11 0C D0
  can0  122   [7]  FF FE 08 93 E9 32 00
  can0  0C1   [5]  26 02 24 00 B3
  can0  121   [8]  00 01 12 4E 16 11 0C D0
  can0  122   [7]  FF FE 08 A3 E9 32 00
  can0  0C1   [5]  27 02 24 00 B2
  can0  121   [8]  00 01 12 4E 16 11 0C D0
  can0  122   [7]  FF FE 08 93 E9 32 00
  can0  0C1   [5]  28 02 24 00 B1
  can0  121   [8]  00 01 12 4E 16 11 0C D0
  can0  122   [7]  FF FE 08 93 E9 32 00
  can0  0C1   [5]  29 02 24 00 B0
  can0  121   [8]  00 01 12 4E 16 11 0C D0
  can0  122   [7]  FF FE 08 93 E9 32 00
  can0  0C1   [5]  2A 02 24 00 AF
  can0  121   [8]  00 01 12 4E 16 11 0C D0
  can0  122   [7]  FF FE 08 E3 E9 32 00
  can0  0C1   [5]  2B 02 24 00 AE
  can0  121   [8]  00 01 12 4E 16 11 0C D0
  can0  122   [7]  FF FE 08 E3 E9 32 00
  can0  0C1   [5]  2C 02 24 00 AD
  can0  121   [8]  00 01 12 4E 16 11 0C D0
  can0  122   [7]  FF FE 08 93 E9 32 00
  can0  0C1   [5]  2D 02 24 00 AC
  can0  121   [8]  00 01 12 4E 16 11 0C D0
  can0  122   [7]  FF FE 09 23 E9 32 00
  can0  0C1   [5]  2E 02 24 00 AB
  can0  0D9   [4]  7D 7C 00 18
  can0  121   [8]  00 01 12 4E 16 11 0C D0
  can0  122   [7]  FF FE 09 23 E9 32 00
  can0  0C1   [5]  2F 02 24 00 AA
  can0  121   [8]  00 01 12 4E 16 11 0C D0
  can0  122   [7]  FF FE 09 13 E9 32 00
  can0  0C1   [5]  30 02 24 00 A9
  can0  121   [8]  00 01 12 4E 16 11 0C D0
  can0  122   [7]  FF FE 08 B3 E9 32 00
  can0  0C1   [5]  31 02 24 00 A8
  can0  121   [8]  00 01 12 4E 16 11 0C D0
  can0  122   [7]  FF FE 08 C3 E9 32 00
  can0  0C1   [5]  32 02 24 00 A7
  can0  121   [8]  00 01 12 4E 16 11 0C D0
  can0  122   [7]  FF FE 08 93 E9 32 00
  can0  0C1   [5]  33 02 24 00 A6
  can0  121   [8]  00 01 12 4E 16 11 0C D0
  can0  122   [7]  FF FE 08 93 E9 32 00
  can0  0C1   [5]  34 02 24 00 A5
  can0  121   [8]  00 01 12 4E 16 11 0C D0
  can0  122   [7]  FF FE 08 C3 E9 32 00
  can0  0C1   [5]  35 02 24 00 A4
  can0  121   [8]  00 01 12 4E 16 11 0C D0
  can0  122   [7]  FF FE 08 C3 E9 32 00
  can0  0C1   [5]  36 02 24 00 A3
  can0  121   [8]  00 01 12 4E 16 11 0C D0
  can0  122   [7]  FF FE 08 93 E9 32 00
  can0  0C1   [5]  37 02 24 00 A2
  can0  121   [8]  00 01 12 4E 16 11 0C D0
  can0  122   [7]  FF FE 08 93 E9 32 00
  can0  0C1   [5]  38 02 24 00 A1
  can0  0D9   [4]  7D 7C 00 18
  can0  121   [8]  00 01 12 4E 16 11 0C D0
  can0  122   [7]  FF FE 08 A3 E9 32 00
  can0  0C1   [5]  39 02 24 00 A0
  can0  121   [8]  00 01 12 4E 16 11 0C D0
  can0  122   [7]  FF FE 09 03 E9 32 00
  can0  0C1   [5]  3A 02 24 00 9F
  can0  121   [8]  00 01 12 4E 16 11 0C D0
  can0  122   [7]  FF FE 08 F3 E9 32 00
  can0  0C1   [5]  3B 02 24 00 9E
  can0  121   [8]  00 01 12 4E 16 11 0C D0
  can0  122   [7]  FF FE 09 03 E9 32 00
  can0  0C1   [5]  3C 02 24 00 9D
  can0  121   [8]  00 01 12 4E 16 11 0C D0
  can0  122   [7]  FF FE 08 93 E9 32 00
  can0  0C1   [5]  3D 02 24 00 9C
  can0  121   [8]  00 01 12 4E 16 11 0C D0
  can0  122   [7]  FF FE 08 93 E9 32 00
  can0  0C1   [5]  3E 02 24 00 9B
  can0  121   [8]  00 01 12 4E 16 11 0C D0
  can0  122   [7]  FF FE 08 93 E9 32 00
  can0  0C1   [5]  3F 02 24 00 9A
  can0  121   [8]  00 01 12 4E 16 11 0C D0
  can0  122   [7]  FF FE 08 93 E9 32 00
  can0  0C1   [5]  40 02 24 00 99
  can0  121   [8]  00 01 12 4E 16 11 0C D0
  can0  122   [7]  FF FE 08 93 E9 32 00
  can0  121   [8]  00 01 12 4E 16 11 0C D0
  can0  0C1   [5]  41 02 24 00 98
  can0  122   [7]  FF FE 08 A3 E9 32 00
  can0  0C1   [5]  42 02 24 00 97
  can0  0D9   [4]  7D 7C 00 18
  can0  121   [8]  00 01 12 4E 16 11 0C D0
  can0  122   [7]  FF FE 08 E3 E9 32 00
  can0  0C1   [5]  43 02 24 00 96
  can0  121   [8]  00 01 12 4E 16 11 0C D0
  can0  122   [7]  FF FE 08 C3 E9 32 00
  can0  121   [8]  00 01 12 4E 16 11 0C D0
  can0  0C1   [5]  44 02 24 00 95
  can0  122   [7]  FF FE 08 E3 E9 32 00
  can0  0C1   [5]  45 02 24 00 94
  can0  121   [8]  00 01 12 4E 16 11 0C D0
  can0  122   [7]  FF FE 08 93 E9 32 00
  can0  121   [8]  00 01 12 4E 16 11 0C D0
  can0  0C1   [5]  46 02 24 00 93
  can0  122   [7]  FF FE 08 93 E9 32 00
  can0  0C1   [5]  47 02 24 00 92
  can0  121   [8]  00 01 12 4E 16 11 0C D0
  can0  122   [7]  FF FE 08 A3 E9 32 00
  can0  0C1   [5]  48 02 24 00 91
  can0  121   [8]  00 01 12 4E 16 11 0C D0
  can0  122   [7]  FF FE 08 B3 E9 32 00
  can0  121   [8]  00 01 12 4E 16 11 0C D0
  can0  0C1   [5]  49 02 24 00 90
  can0  122   [7]  FF FE 08 93 E9 32 00
  can0  0C1   [5]  4A 02 24 00 8F
  can0  121   [8]  00 01 12 4E 16 11 0C D0
  can0  122   [7]  FF FE 08 93 E9 32 00
  can0  0C1   [5]  4B 02 24 00 8E
  can0  121   [8]  00 01 12 4E 16 11 0C D0
  can0  122   [7]  FF FE 08 93 E9 32 00
  can0  121   [8]  00 01 12 4E 16 11 0C D0
  can0  0C1   [5]  4C 02 24 00 8D
  can0  0D9   [4]  7D 7C 00 18
  can0  122   [7]  FF FE 08 B3 E9 32 00
  can0  0C1   [5]  4D 02 24 00 8C
  can0  121   [8]  00 01 12 4E 16 11 0C D0
  can0  122   [7]  FF FE 08 93 E9 32 00
  can0  0C1   [5]  4E 02 24 00 8B
  can0  121   [8]  00 01 12 4E 16 11 0C D0
  can0  122   [7]  FF FE 08 93 E9 32 00
  can0  0C1   [5]  4F 02 24 00 8A
  can0  121   [8]  00 01 12 4E 16 11 0C D0
  can0  122   [7]  FF FE 08 93 E9 32 00
  can0  0C1   [5]  50 02 24 00 89
  can0  121   [8]  00 01 12 4E 16 11 0C D0
  can0  122   [7]  FF FE 08 93 E9 32 00
  can0  0C1   [5]  51 02 24 00 88
  can0  121   [8]  00 01 12 4E 16 11 0C D0
  can0  122   [7]  FF FE 08 B3 E9 32 00
  can0  0C1   [5]  52 02 24 00 87
  can0  121   [8]  00 01 12 4E 16 11 0C D0
  can0  122   [7]  FF FE 08 B3 E9 32 00
  can0  0C1   [5]  53 02 24 00 86
  can0  121   [8]  00 01 12 4E 16 11 0C D0
  can0  122   [7]  FF FE 08 A3 E9 32 00
  can0  0C1   [5]  54 02 24 00 85
  can0  121   [8]  00 01 12 4E 16 11 0C D0
  can0  122   [7]  FF FE 08 A3 E9 32 00
  can0  0C1   [5]  55 02 24 00 84
  can0  121   [8]  00 01 12 4E 16 11 0C D0
  can0  122   [7]  FF FE 08 93 E9 32 00
  can0  0C1   [5]  56 02 24 00 83
  can0  0D9   [4]  7C 7C 00 18
  can0  121   [8]  00 01 12 4E 16 11 0C D0
  can0  122   [7]  FF FE 08 93 E9 32 00
  can0  0C1   [5]  57 02 24 00 82
  can0  121   [8]  00 01 12 4E 16 11 0C D0
  can0  122   [7]  FF FE 08 93 E9 32 00
  can0  0C1   [5]  58 02 24 00 81
  can0  121   [8]  00 01 12 4E 16 11 0C D0
  can0  122   [7]  FF FE 08 93 E9 32 00
  can0  0C1   [5]  59 02 24 00 80
  can0  121   [8]  00 01 12 4E 16 11 0C D0
  can0  122   [7]  FF FE 08 93 E9 32 00
  can0  0C1   [5]  5A 02 24 00 7F
  can0  121   [8]  00 01 12 4E 16 11 0C D0
  can0  122   [7]  FF FE 08 93 E9 32 00
  can0  0C1   [5]  5B 02 24 00 7E
  can0  121   [8]  00 01 12 4E 16 11 0C D0
  can0  122   [7]  FF FE 08 93 E9 32 00
  can0  0C1   [5]  5C 02 24 00 7D
  can0  121   [8]  00 01 12 4E 16 11 0C D0
  can0  122   [7]  FF FE 08 93 E9 32 00
  can0  0C1   [5]  5D 02 24 00 7C
  can0  121   [8]  00 01 12 4E 16 11 0C D0
  can0  122   [7]  FF FE 08 93 E9 32 00
  can0  0C1   [5]  5E 02 24 00 7B
  can0  121   [8]  00 01 12 4E 16 11 0C D0
  can0  122   [7]  FF FE 08 93 E9 32 00
  can0  0C1   [5]  5F 02 24 00 7A
  can0  121   [8]  00 01 12 4E 16 11 0C D0
  can0  122   [7]  FF FE 08 93 E9 32 00
  can0  0C1   [5]  60 02 24 00 79
  can0  0D9   [4]  7D 7C 00 18
  can0  121   [8]  00 01 12 4E 16 11 0C D0
  can0  122   [7]  FF FE 08 93 E9 32 00
  can0  0C1   [5]  61 02 24 00 78
  can0  121   [8]  00 01 12 4E 16 11 0C D0
  can0  122   [7]  FF FE 08 93 E9 32 00
  can0  0C1   [5]  62 02 24 00 77
  can0  121   [8]  00 01 12 4E 16 11 0C D0
  can0  122   [7]  FF FE 08 93 E9 32 00
  can0  0C1   [5]  63 02 24 00 76
  can0  121   [8]  00 01 12 4E 16 11 0C D0
  can0  122   [7]  FF FE 08 93 E9 32 00
  can0  0C1   [5]  64 02 24 00 75
  can0  121   [8]  00 01 12 4E 16 11 0C D0
  can0  122   [7]  FF FE 08 E3 E9 32 00
  can0  0C1   [5]  65 02 24 00 74
  can0  121   [8]  00 01 12 4E 16 11 0C D0
  can0  122   [7]  FF FE 08 93 E9 32 00
  can0  0C1   [5]  66 02 24 00 73
  can0  121   [8]  00 01 12 4E 16 11 0C D0
  can0  122   [7]  FF FE 08 93 E9 32 00
  can0  0C1   [5]  67 02 24 00 72
  can0  121   [8]  00 01 12 4E 16 11 0C D0
  can0  122   [7]  FF FE 08 A3 E9 32 00
  can0  0C1   [5]  68 02 24 00 71
  can0  121   [8]  00 01 12 4E 16 11 0C D0
  can0  122   [7]  FF FE 08 C3 E9 32 00
  can0  0C1   [5]  69 02 24 00 70
  can0  121   [8]  00 01 12 4E 16 11 0C D0
  can0  122   [7]  FF FE 08 93 E9 32 00
  can0  0C1   [5]  6A 02 24 00 6F
  can0  0D9   [4]  7D 7C 00 18
  can0  121   [8]  00 01 12 4E 16 11 0C D0
  can0  122   [7]  FF FE 08 93 E9 32 00
  can0  0C1   [5]  6B 02 24 00 6E
  can0  121   [8]  00 01 12 4E 16 11 0C D0
  can0  122   [7]  FF FE 08 93 E9 32 00
  can0  0C1   [5]  6C 02 24 00 6D
  can0  121   [8]  00 01 12 4E 16 11 0C D0
  can0  122   [7]  FF FE 08 93 E9 32 00
  can0  0C1   [5]  6D 02 24 00 6C
  can0  121   [8]  00 01 12 4E 16 11 0C D0
  can0  122   [7]  FF FE 08 93 E9 32 00
  can0  0C1   [5]  6E 02 24 00 6B
  can0  121   [8]  00 01 12 4E 16 11 0C D0
  can0  122   [7]  FF FE 08 93 E9 32 00
  can0  0C1   [5]  6F 02 24 00 6A
  can0  121   [8]  00 01 12 4E 16 11 0C D0
  can0  122   [7]  FF FE 08 93 E9 32 00
  can0  0C1   [5]  70 02 24 00 69
  can0  121   [8]  00 01 12 4E 16 11 0C D0
  can0  122   [7]  FF FE 08 B3 E9 32 00
  can0  0C1   [5]  71 02 24 00 68
  can0  121   [8]  00 01 12 4E 16 11 0C D0
  can0  122   [7]  FF FE 08 93 E9 32 00
  can0  121   [8]  00 01 12 4E 16 11 0C D0
  can0  0C1   [5]  72 02 24 00 67
  can0  122   [7]  FF FE 08 93 E9 32 00
  can0  121   [8]  00 01 12 4E 16 11 0C D0
  can0  0C1   [5]  73 02 24 00 66
  can0  122   [7]  FF FE 09 13 E9 32 00
  can0  0C1   [5]  74 02 24 00 65
  can0  0D9   [4]  7D 7C 00 18
  can0  121   [8]  00 01 12 4E 16 11 0C D0
  can0  122   [7]  FF FE 08 E3 E9 32 00
  can0  0C1   [5]  75 02 24 00 64
  can0  121   [8]  00 01 12 4E 16 11 0C D0
  can0  122   [7]  FF FE 08 93 E9 32 00
  can0  121   [8]  00 01 12 4E 16 11 0C D0
  can0  0C1   [5]  76 02 24 00 63
  can0  122   [7]  FF FE 08 93 E9 32 00
  can0  0C1   [5]  77 02 24 00 62
  can0  121   [8]  00 01 12 4E 16 11 0C D0
  can0  122   [7]  FF FE 08 93 E9 32 00
  can0  0C1   [5]  78 02 24 00 61
  can0  121   [8]  00 01 12 4E 16 11 0C D0
  can0  122   [7]  FF FE 08 A3 E9 32 00
  can0  0C1   [5]  79 02 24 00 60
  can0  121   [8]  00 01 12 4E 16 11 0C D0
  can0  122   [7]  FF FE 08 93 E9 32 00
  can0  0C1   [5]  7A 02 24 00 5F
  can0  121   [8]  00 01 12 4E 16 11 0C D0
  can0  122   [7]  FF FE 08 93 E9 32 00
  can0  0C1   [5]  7B 02 24 00 5E
  can0  121   [8]  00 01 12 4E 16 11 0C D0
  can0  122   [7]  FF FE 08 93 E9 32 00
  can0  0C1   [5]  7C 02 24 00 5D
  can0  121   [8]  00 01 12 4E 16 11 0C D0
  can0  122   [7]  FF FE 08 93 E9 32 00
  can0  0C1   [5]  7D 02 24 00 5C
  can0  121   [8]  00 01 12 4E 16 11 0C D0
  can0  122   [7]  FF FE 08 93 E9 32 00
  can0  0C1   [5]  7E 02 24 00 5B
  can0  0D9   [4]  7D 7C 00 18
  can0  121   [8]  00 01 12 4E 16 11 0C D0
  can0  122   [7]  FF FE 08 B3 E9 32 00
  can0  0C1   [5]  7F 02 24 00 5A
  can0  121   [8]  00 01 12 4E 16 11 0C D0
  can0  122   [7]  FF FE 08 A3 E9 32 00
  can0  121   [8]  00 01 12 4E 16 11 0C D0
  can0  0C1   [5]  80 02 24 00 59
  can0  122   [7]  FF FE 08 93 E9 32 00
  can0  0C1   [5]  81 02 24 00 58
  can0  121   [8]  00 01 12 4E 16 11 0C D0
  can0  122   [7]  FF FE 08 93 E9 32 00
  can0  121   [8]  00 01 12 4E 16 11 0C D0
  can0  0C1   [5]  82 02 24 00 57
  can0  122   [7]  FF FE 08 93 E9 32 00
  can0  121   [8]  00 01 12 4E 16 11 0C D0
  can0  0C1   [5]  83 02 24 00 56
  can0  122   [7]  FF FE 08 93 E9 32 00
  can0  0C1   [5]  84 02 24 00 55
  can0  121   [8]  00 01 12 4E 16 11 0C D0
  can0  122   [7]  FF FE 08 93 E9 32 00
  can0  0C1   [5]  85 02 24 00 54
  can0  121   [8]  00 01 12 4E 16 11 0C D0
  can0  122   [7]  FF FE 08 93 E9 32 00
  can0  0C1   [5]  86 02 24 00 53
  can0  121   [8]  00 01 12 4E 16 11 0C D0
  can0  122   [7]  FF FE 08 C3 E9 32 00
  can0  0C1   [5]  87 02 24 00 52
  can0  121   [8]  00 01 12 4E 16 11 0C D0
  can0  122   [7]  FF FE 08 93 E9 32 00
  can0  121   [8]  00 01 12 4E 16 11 0C D0
  can0  0C1   [5]  88 02 24 00 51
  can0  0D9   [4]  7D 7C 00 18
  can0  122   [7]  FF FE 08 93 E9 32 00
  can0  0C1   [5]  89 02 24 00 50
  can0  121   [8]  00 01 12 4E 16 11 0C D0
  can0  122   [7]  FF FE 08 93 E9 32 00
  can0  0C1   [5]  8A 02 24 00 4F
  can0  121   [8]  00 01 12 4E 16 11 0C D0
  can0  122   [7]  FF FE 08 93 E9 32 00
  can0  0C1   [5]  8B 02 24 00 4E
  can0  121   [8]  00 01 12 4E 16 11 0C D0
  can0  122   [7]  FF FE 08 93 E9 32 00
  can0  0C1   [5]  8C 02 24 00 4D
  can0  121   [8]  00 01 12 4E 16 11 0C D0
  can0  122   [7]  FF FE 08 93 E9 32 00
  can0  0C1   [5]  8D 02 24 00 4C
  can0  121   [8]  00 01 12 4E 16 11 0C D0
  can0  122   [7]  FF FE 08 93 E9 32 00
  can0  0C1   [5]  8E 02 24 00 4B
  can0  121   [8]  00 01 12 4E 16 11 0C D0
  can0  122   [7]  FF FE 08 93 E9 32 00
  can0  0C1   [5]  8F 02 24 00 4A
  can0  121   [8]  00 01 12 4E 16 11 0C D0
  can0  122   [7]  FF FE 08 93 E9 32 00
  can0  0C1   [5]  90 02 24 00 49
  can0  121   [8]  00 01 12 4E 16 11 0C D0
  can0  122   [7]  FF FE 08 B3 E9 32 00
  can0  0C1   [5]  91 02 24 00 48
  can0  121   [8]  00 01 12 4E 16 11 0C D0
  can0  122   [7]  FF FE 08 93 E9 32 00
  can0  0C1   [5]  92 02 24 00 47
  can0  0D9   [4]  7D 7C 00 18
  can0  121   [8]  00 01 12 4E 16 11 0C D0
  can0  122   [7]  FF FE 08 A3 E9 32 00
  can0  0C1   [5]  93 02 24 00 46
  can0  121   [8]  00 01 12 4E 16 11 0C D0
  can0  122   [7]  FF FE 08 C3 E9 32 00
  can0  0C1   [5]  94 02 24 00 45
  can0  121   [8]  00 01 12 4E 16 11 0C D0
  can0  122   [7]  FF FE 08 93 E9 32 00
  can0  0C1   [5]  95 02 24 00 44
  can0  121   [8]  00 01 12 4E 16 11 0C D0
  can0  122   [7]  FF FE 08 93 E9 32 00
  can0  0C1   [5]  96 02 24 00 43
  can0  121   [8]  00 01 12 4E 16 11 0C D0
  can0  122   [7]  FF FE 08 93 E9 32 00
  can0  0C1   [5]  97 02 24 00 42
  can0  121   [8]  00 01 12 4E 16 11 0C D0
  can0  122   [7]  FF FE 08 93 E9 32 00
  can0  0C1   [5]  98 02 24 00 41
  can0  121   [8]  00 01 12 4E 16 11 0C D0
  can0  122   [7]  FF FE 08 93 E9 32 00
  can0  0C1   [5]  99 02 24 00 40
  can0  121   [8]  00 01 12 4E 16 11 0C D0
  can0  122   [7]  FF FE 08 93 E9 32 00
  can0  0C1   [5]  9A 02 24 00 3F
  can0  121   [8]  00 01 12 4E 16 11 0C D0
  can0  122   [7]  FF FE 08 93 E9 32 00
  can0  0C1   [5]  9B 02 24 00 3E
  can0  121   [8]  00 01 12 4E 16 11 0C D0
  can0  122   [7]  FF FE 08 93 E9 32 00
  can0  0C1   [5]  9C 02 24 00 3D
  can0  0D9   [4]  7D 7C 00 18
  can0  121   [8]  00 01 12 4E 16 11 0C D0
  can0  122   [7]  FF FE 08 A3 E9 32 00
  can0  0C1   [5]  9D 02 24 00 3C
  can0  121   [8]  00 01 12 4E 16 11 0C D0
  can0  122   [7]  FF FE 09 03 E9 32 00
  can0  0C1   [5]  9E 02 24 00 3B
  can0  121   [8]  00 01 12 4E 16 11 0C D0
  can0  122   [7]  FF FE 08 93 E9 32 00
  can0  0C1   [5]  9F 02 24 00 3A
  can0  121   [8]  00 01 12 4E 16 11 0C D0
  can0  122   [7]  FF FE 08 93 E9 32 00
  can0  0C1   [5]  A0 02 24 00 39
  can0  121   [8]  00 01 12 4E 16 11 0C D0
  can0  122   [7]  FF FE 08 93 E9 32 00
  can0  0C1   [5]  A1 02 24 00 38
  can0  121   [8]  00 01 12 4E 16 11 0C D0
  can0  122   [7]  FF FE 08 E3 E9 32 00
  can0  0C1   [5]  A2 02 24 00 37
  can0  121   [8]  00 01 12 4E 16 11 0C D0
  can0  122   [7]  FF FE 08 C3 E9 32 00
  can0  0C1   [5]  A3 02 24 00 36
  can0  121   [8]  00 01 12 4E 16 11 0C D0
  can0  122   [7]  FF FE 08 93 E9 32 00
  can0  121   [8]  00 01 12 4E 16 11 0C D0
  can0  0C1   [5]  A4 02 24 00 35
  can0  122   [7]  FF FE 08 93 E9 32 00
  can0  121   [8]  00 01 12 4E 16 11 0C D0
  can0  0C1   [5]  A5 02 24 00 34
  can0  122   [7]  FF FE 08 93 E9 32 00
  can0  0C1   [5]  A6 02 24 00 33
  can0  0D9   [4]  7D 7C 00 18
  can0  121   [8]  00 01 12 4E 16 11 0C D0
  can0  122   [7]  FF FE 08 93 E9 32 00
  can0  0C1   [5]  A7 02 24 00 32
  can0  121   [8]  00 01 12 4E 16 11 0C D0
  can0  122   [7]  FF FE 08 93 E9 32 00
  can0  0C1   [5]  A8 02 24 00 31
  can0  121   [8]  00 01 12 4E 16 11 0C D0
  can0  122   [7]  FF FE 08 A3 E9 32 00
  can0  0C1   [5]  A9 02 24 00 30
  can0  121   [8]  00 01 12 4E 16 11 0C D0
  can0  122   [7]  FF FE 08 E3 E9 32 00
  can0  0C1   [5]  AA 02 24 00 2F
  can0  121   [8]  00 01 12 4E 16 11 0C D0
  can0  122   [7]  FF FE 08 E3 E9 32 00
  can0  0C1   [5]  AB 02 24 00 2E
  can0  121   [8]  00 01 12 4E 16 11 0C D0
  can0  122   [7]  FF FE 08 93 E9 32 00
  can0  0C1   [5]  AC 02 24 00 2D
  can0  121   [8]  00 01 12 4E 16 11 0C D0
  can0  122   [7]  FF FE 08 93 E9 32 00
  can0  0C1   [5]  AD 02 24 00 2C
  can0  121   [8]  00 01 12 4E 16 11 0C D0
  can0  122   [7]  FF FE 08 93 E9 32 00
  can0  121   [8]  00 01 12 4E 16 11 0C D0
  can0  0C1   [5]  AE 02 24 00 2B
  can0  122   [7]  FF FE 08 93 E9 32 00
  can0  0C1   [5]  AF 02 24 00 2A
  can0  121   [8]  00 01 12 4E 16 11 0C D0
  can0  122   [7]  FF FE 08 93 E9 32 00
  can0  0C1   [5]  B0 02 24 00 29
  can0  0D9   [4]  7D 7C 00 18
  can0  121   [8]  00 01 12 4E 16 11 0C D0
  can0  122   [7]  FF FE 08 93 E9 32 00
  can0  0C1   [5]  B1 02 24 00 28
  can0  121   [8]  00 01 12 4E 16 11 0C D0
  can0  122   [7]  FF FE 08 93 E9 32 00
  can0  0C1   [5]  B2 02 24 00 27
  can0  121   [8]  00 01 12 4E 16 11 0C D0
  can0  122   [7]  FF FE 08 93 E9 32 00
  can0  0C1   [5]  B3 02 24 00 26
  can0  121   [8]  00 01 12 4E 16 11 0C D0
  can0  122   [7]  FF FE 08 93 E9 32 00
  can0  121   [8]  00 01 12 4E 16 11 0C D0
  can0  0C1   [5]  B4 02 24 00 25
  can0  122   [7]  FF FE 08 93 E9 32 00
  can0  0C1   [5]  B5 02 24 00 24
  can0  121   [8]  00 01 12 4E 16 11 0C D0
  can0  122   [7]  FF FE 08 93 E9 32 00
  can0  0C1   [5]  B6 02 24 00 23
  can0  121   [8]  00 01 12 4E 16 11 0C D0
  can0  122   [7]  FF FE 08 93 E9 32 00
  can0  0C1   [5]  B7 02 24 00 22
  can0  121   [8]  00 01 12 4E 16 11 0C D0
  can0  122   [7]  FF FE 08 93 E9 32 00
  can0  0C1   [5]  B8 02 24 00 21
  can0  121   [8]  00 01 12 4E 16 11 0C D0
  can0  122   [7]  FF FE 08 93 E9 32 00
  can0  0C1   [5]  B9 02 24 00 20
  can0  121   [8]  00 01 12 4E 16 11 0C D0
  can0  122   [7]  FF FE 08 93 E9 32 00
  can0  0C1   [5]  BA 02 24 00 1F
  can0  0D9   [4]  7C 7C 00 18
  can0  121   [8]  00 01 12 4E 16 11 0C D0
  can0  122   [7]  FF FE 08 93 E9 32 00
  can0  0C1   [5]  BB 02 24 00 1E
  can0  121   [8]  00 01 12 4E 16 11 0C D0
  can0  122   [7]  FF FE 08 93 E9 32 00
  can0  121   [8]  00 01 12 4E 16 11 0C D0
  can0  0C1   [5]  BC 02 24 00 1D
  can0  122   [7]  FF FE 08 93 E9 32 00
  can0  0C1   [5]  BD 02 24 00 1C
  can0  121   [8]  00 01 12 4E 16 11 0C D0
  can0  122   [7]  FF FE 08 93 E9 32 00
  can0  121   [8]  00 01 12 4E 16 11 0C D0
  can0  0C1   [5]  BE 02 24 00 1B
  can0  122   [7]  FF FE 08 93 E9 32 00
  can0  0C1   [5]  BF 02 24 00 1A
  can0  121   [8]  00 01 12 4E 16 11 0C D0
  can0  122   [7]  FF FE 08 93 E9 32 00
  can0  0C1   [5]  C0 02 24 00 19
  can0  121   [8]  00 01 12 4E 16 11 0C D0
  can0  122   [7]  FF FE 08 93 E9 32 00
  can0  121   [8]  00 01 12 4E 16 11 0C D0
  can0  0C1   [5]  C1 02 24 00 18
  can0  122   [7]  FF FE 08 C3 E9 32 00
  can0  0C1   [5]  C2 02 24 00 17
  can0  121   [8]  00 01 12 4E 16 11 0C D0
  can0  122   [7]  FF FE 08 F3 E9 32 00
  can0  0C1   [5]  C3 02 24 00 16
  can0  121   [8]  00 01 12 4E 16 11 0C D0
  can0  122   [7]  FF FE 08 C3 E9 32 00
  can0  121   [8]  00 01 12 4E 16 11 0C D0
  can0  0C1   [5]  C4 02 24 00 15
  can0  0D9   [4]  7D 7C 00 18
  can0  122   [7]  FF FE 08 93 E9 32 00
  can0  0C1   [5]  C5 02 24 00 14
  can0  121   [8]  00 01 12 4E 16 11 0C D0
  can0  122   [7]  FF FE 08 93 E9 32 00
  can0  0C1   [5]  C6 02 24 00 13
  can0  121   [8]  00 01 12 4E 16 11 0C D0
  can0  122   [7]  FF FE 08 93 E9 32 00
  can0  0C1   [5]  C7 02 24 00 12
  can0  121   [8]  00 01 12 4E 16 11 0C D0
  can0  122   [7]  FF FE 08 93 E9 32 00
  can0  0C1   [5]  C8 02 24 00 11
  can0  121   [8]  00 01 12 4E 16 11 0C D0
  can0  122   [7]  FF FE 08 93 E9 32 00
  can0  0C1   [5]  C9 02 24 00 10
  can0  121   [8]  00 01 12 4E 16 11 0C D0
  can0  122   [7]  FF FE 08 93 E9 32 00
  can0  0C1   [5]  CA 02 24 00 0F
  can0  121   [8]  00 01 12 4E 16 11 0C D0
  can0  122   [7]  FF FE 08 93 E9 32 00
  can0  0C1   [5]  CB 02 24 00 0E
  can0  121   [8]  00 01 12 4E 16 11 0C D0
  can0  122   [7]  FF FE 08 93 E9 32 00
  can0  0C1   [5]  CC 02 24 00 0D
  can0  121   [8]  00 01 12 4E 16 11 0C D0
  can0  122   [7]  FF FE 08 93 E9 32 00
  can0  0C1   [5]  CD 02 24 00 0C
  can0  121   [8]  00 01 12 4E 16 11 0C D0
  can0  122   [7]  FF FE 08 93 E9 32 00
  can0  0C1   [5]  CE 02 24 00 0B
  can0  0D9   [4]  7D 7C 00 18
  can0  121   [8]  00 01 12 4E 16 11 0C D0
  can0  122   [7]  FF FE 08 93 E9 32 00
  can0  0C1   [5]  CF 02 24 00 0A
  can0  121   [8]  00 01 12 4E 16 11 0C D0
  can0  122   [7]  FF FE 08 93 E9 32 00
  can0  0C1   [5]  D0 02 24 00 09
  can0  121   [8]  00 01 12 4E 16 11 0C D0
  can0  122   [7]  FF FE 08 93 E9 32 00
  can0  0C1   [5]  D1 02 24 00 08
  can0  121   [8]  00 01 12 4E 16 11 0C D0
  can0  122   [7]  FF FE 08 E3 E9 32 00
  can0  0C1   [5]  D2 02 24 00 07
  can0  121   [8]  00 01 12 4E 16 11 0C D0
  can0  122   [7]  FF FE 08 93 E9 32 00
  can0  0C1   [5]  D3 02 24 00 06
  can0  121   [8]  00 01 12 4E 16 11 0C D0
  can0  122   [7]  FF FE 08 93 E9 32 00
  can0  0C1   [5]  D4 02 24 00 05
  can0  121   [8]  00 01 12 4E 16 11 0C D0
  can0  122   [7]  FF FE 08 93 E9 32 00
  can0  0C1   [5]  D5 02 24 00 04
  can0  121   [8]  00 01 12 4E 16 11 0C D0
  can0  122   [7]  FF FE 08 93 E9 32 00
  can0  0C1   [5]  D6 02 24 00 03
  can0  121   [8]  00 01 12 4E 16 11 0C D0
  can0  122   [7]  FF FE 08 93 E9 32 00
  can0  0C1   [5]  D7 02 24 00 02
  can0  121   [8]  00 01 12 4E 16 11 0C D0
  can0  122   [7]  FF FE 08 93 E9 32 00
  can0  0C1   [5]  D8 02 24 00 01
  can0  0D9   [4]  7D 7C 00 18
  can0  121   [8]  00 01 12 4E 16 11 0C D0
  can0  122   [7]  FF FE 08 93 E9 32 00
  can0  0C1   [5]  D9 02 24 00 00
  can0  121   [8]  00 01 12 4E 16 11 0C D0
  can0  122   [7]  FF FE 08 93 E9 32 00
  can0  0C1   [5]  DA 02 24 00 FF
  can0  121   [8]  00 01 12 4E 16 11 0C D0
  can0  122   [7]  FF FE 08 93 E9 32 00
  can0  0C1   [5]  DB 02 24 00 FE
  can0  121   [8]  00 01 12 4E 16 11 0C D0
  can0  122   [7]  FF FE 08 93 E9 32 00
  can0  0C1   [5]  DC 02 24 00 FD
  can0  121   [8]  00 01 12 4E 16 11 0C D0
  can0  122   [7]  FF FE 08 93 E9 32 00
  can0  0C1   [5]  DD 02 24 00 FC
  can0  121   [8]  00 01 12 4E 16 11 0C D0
  can0  122   [7]  FF FE 08 93 E9 32 00
  can0  0C1   [5]  DE 02 24 00 FB
  can0  121   [8]  00 01 12 4E 16 11 0C D0
  can0  122   [7]  FF FE 08 93 E9 32 00
  can0  0C1   [5]  DF 02 24 00 FA
  can0  121   [8]  00 01 12 4E 16 11 0C D0
  can0  122   [7]  FF FE 09 03 E9 32 00
  can0  0C1   [5]  E0 02 24 00 F9
  can0  121   [8]  00 01 12 4E 16 11 0C D0
  can0  122   [7]  FF FE 08 B3 E9 32 00
  can0  0C1   [5]  E1 02 24 00 F8
  can0  121   [8]  00 01 12 4E 16 11 0C D0
  can0  122   [7]  FF FE 08 93 E9 32 00
  can0  0C1   [5]  E2 02 24 00 F7
  can0  0D9   [4]  7D 7C 00 18
  can0  121   [8]  00 01 12 4E 16 11 0C D0
  can0  122   [7]  FF FE 08 93 E9 32 00
  can0  0C1   [5]  E3 02 24 00 F6
  can0  121   [8]  00 01 12 4E 16 11 0C D0
  can0  122   [7]  FF FE 08 A3 E9 32 00
  can0  0C1   [5]  E4 02 24 00 F5
  can0  121   [8]  00 01 12 4E 16 11 0C D0
  can0  122   [7]  FF FE 08 93 E9 32 00
  can0  0C1   [5]  E5 02 24 00 F4
  can0  121   [8]  00 01 12 4E 16 11 0C D0
  can0  122   [7]  FF FE 08 93 E9 32 00
  can0  0C1   [5]  E6 02 24 00 F3
  can0  121   [8]  00 01 12 4E 16 11 0C D0
  can0  122   [7]  FF FE 08 93 E9 32 00
  can0  0C1   [5]  E7 02 24 00 F2
  can0  121   [8]  00 01 12 4E 16 11 0C D0
  can0  122   [7]  FF FE 08 93 E9 32 00
  can0  0C1   [5]  E8 02 24 00 F1
  can0  121   [8]  00 01 12 4E 16 11 0C D0
  can0  122   [7]  FF FE 08 93 E9 32 00
  can0  0C1   [5]  E9 02 24 00 F0
  can0  121   [8]  00 01 12 4E 16 11 0C D0
  can0  122   [7]  FF FE 08 93 E9 32 00
  can0  0C1   [5]  EA 02 24 00 EF
  can0  121   [8]  00 01 12 4E 16 11 0C D0
  can0  122   [7]  FF FE 08 A3 E9 32 00
  can0  0C1   [5]  EB 02 24 00 EE
  can0  121   [8]  00 01 12 4E 16 11 0C D0
  can0  122   [7]  FF FE 08 93 E9 32 00
  can0  0C1   [5]  EC 02 24 00 ED
  can0  0D9   [4]  7D 7C 00 18
  can0  121   [8]  00 01 12 4E 16 11 0C D0
  can0  122   [7]  FF FE 08 B3 E9 32 00
  can0  0C1   [5]  ED 02 24 00 EC
  can0  121   [8]  00 01 12 4E 16 11 0C D0
  can0  122   [7]  FF FE 08 93 E9 32 00
  can0  0C1   [5]  EE 02 24 00 EB
  can0  121   [8]  00 01 12 4E 16 11 0C D0
  can0  122   [7]  FF FE 09 13 E9 32 00
  can0  0C1   [5]  EF 02 24 00 EA
  can0  121   [8]  00 01 12 4E 16 11 0C D0
  can0  122   [7]  FF FE 08 E3 E9 32 00
  can0  0C1   [5]  F0 02 24 00 E9
  can0  121   [8]  00 01 12 4E 16 11 0C D0
  can0  122   [7]  FF FE 08 93 E9 32 00
  can0  0C1   [5]  F1 02 24 00 E8
  can0  121   [8]  00 01 12 4E 16 11 0C D0
  can0  122   [7]  FF FE 08 93 E9 32 00
  can0  0C1   [5]  F2 02 24 00 E7
  can0  121   [8]  00 01 12 4E 16 11 0C D0
  can0  122   [7]  FF FE 08 93 E9 32 00
  can0  0C1   [5]  F3 02 24 00 E6
  can0  121   [8]  00 01 12 4E 16 11 0C D0
  can0  122   [7]  FF FE 08 93 E9 32 00
  can0  0C1   [5]  F4 02 24 00 E5
  can0  121   [8]  00 01 12 4E 16 11 0C D0
  can0  122   [7]  FF FE 08 93 E9 32 00
  can0  0C1   [5]  F5 02 24 00 E4
  can0  121   [8]  00 01 12 4E 16 11 0C D0
  can0  122   [7]  FF FE 08 93 E9 32 00
  can0  0C1   [5]  F6 02 24 00 E3
  can0  0D9   [4]  7D 7C 00 18
  can0  121   [8]  00 01 12 4E 16 11 0C D0
  can0  122   [7]  FF FE 08 93 E9 32 00
  can0  0C1   [5]  F7 02 24 00 E2
  can0  121   [8]  00 01 12 4E 16 11 0C D0
  can0  122   [7]  FF FE 09 03 E9 32 00
  can0  0C1   [5]  F8 02 24 00 E1
  can0  121   [8]  00 01 12 4E 16 11 0C D0
  can0  122   [7]  FF FE 08 B3 E9 32 00
  can0  0C1   [5]  F9 02 24 00 E0
  can0  121   [8]  00 01 12 4E 16 11 0C D0
  can0  122   [7]  FF FE 08 93 E9 32 00
  can0  0C1   [5]  FA 02 24 00 DF
  can0  121   [8]  00 01 12 4E 16 11 0C D0
  can0  122   [7]  FF FE 08 93 E9 32 00
  can0  0C1   [5]  FB 02 24 00 DE
  can0  121   [8]  00 01 12 4E 16 11 0C D0
  can0  122   [7]  FF FE 08 93 E9 32 00
  can0  0C1   [5]  FC 02 24 00 DD
  can0  121   [8]  00 01 12 4E 16 11 0C D0
  can0  122   [7]  FF FE 08 93 E9 32 00
  can0  0C1   [5]  FD 02 24 00 DC
  can0  121   [8]  00 01 12 4E 16 11 0C D0
  can0  122   [7]  FF FE 08 A3 E9 32 00
  can0  0C1   [5]  FE 02 24 00 DB
  can0  121   [8]  00 01 12 4E 16 11 0C D0
  can0  122   [7]  FF FE 08 93 E9 32 00
  can0  121   [8]  00 01 12 4E 16 11 0C D0
  can0  0C1   [5]  FF 02 24 00 DA
  can0  122   [7]  FF FE 08 93 E9 32 00
  can0  0C1   [5]  00 02 24 00 D9
  can0  7D3   [4]  0C 73 5A 00
  can0  0D9   [4]  7D 7C 00 18
  can0  121   [8]  00 01 12 4E 16 11 0C D0
  can0  122   [7]  FF FE 08 93 E9 32 00
  can0  0C1   [5]  01 02 24 00 D8
  can0  121   [8]  00 01 12 4E 16 11 0C D0
  can0  122   [7]  FF FE 08 93 E9 32 00
  can0  0C1   [5]  02 02 24 00 D7
  can0  121   [8]  00 01 12 4E 16 11 0C D0
  can0  122   [7]  FF FE 08 B3 E9 32 00
  can0  0C1   [5]  03 02 24 00 D6
  can0  121   [8]  00 01 12 4E 16 11 0C D0
  can0  122   [7]  FF FE 08 C3 E9 32 00
  can0  0C1   [5]  04 02 24 00 D5
  can0  121   [8]  00 01 12 4E 16 11 0C D0
  can0  122   [7]  FF FE 08 93 E9 32 00
  can0  0C1   [5]  05 02 24 00 D4
  can0  121   [8]  00 01 12 4E 16 11 0C D0
  can0  122   [7]  FF FE 08 93 E9 32 00
  can0  0C1   [5]  06 02 24 00 D3
  can0  121   [8]  00 01 12 4E 16 11 0C D0
  can0  122   [7]  FF FE 08 93 E9 32 00
  can0  0C1   [5]  07 02 24 00 D2
  can0  121   [8]  00 01 12 4E 16 11 0C D0
  can0  122   [7]  FF FE 08 93 E9 32 00
  can0  0C1   [5]  08 02 24 00 D1
  can0  121   [8]  00 01 12 4E 16 11 0C D0
  can0  122   [7]  FF FE 08 93 E9 32 00
  can0  0C1   [5]  09 02 24 00 D0
  can0  121   [8]  00 01 12 4E 16 11 0C D0
  can0  122   [7]  FF FE 08 B3 E9 32 00
  can0  0C1   [5]  0A 02 24 00 CF
  can0  0D9   [4]  7D 7C 00 18
  can0  121   [8]  00 01 12 4E 16 11 0C D0
  can0  122   [7]  FF FE 08 B3 E9 32 00
  can0  0C1   [5]  0B 02 24 00 CE
  can0  121   [8]  00 01 12 4E 16 11 0C D0
  can0  122   [7]  FF FE 08 C3 E9 32 00
  can0  0C1   [5]  0C 02 24 00 CD
  can0  121   [8]  00 01 12 4E 16 11 0C D0
  can0  122   [7]  FF FE 08 B3 E9 32 00
  can0  0C1   [5]  0D 02 24 00 CC
  can0  121   [8]  00 01 12 4E 16 11 0C D0
  can0  122   [7]  FF FE 08 E3 E9 32 00
  can0  0C1   [5]  0E 02 24 00 CB
  can0  121   [8]  00 01 12 4E 16 11 0C D0
  can0  122   [7]  FF FE 08 E3 E9 32 00
  can0  0C1   [5]  0F 02 24 00 CA
  can0  121   [8]  00 01 12 4E 16 11 0C D0
  can0  122   [7]  FF FE 08 93 E9 32 00
  can0  0C1   [5]  10 02 24 00 C9
  can0  121   [8]  00 01 12 4E 16 11 0C D0
  can0  122   [7]  FF FE 08 B3 E9 32 00
  can0  0C1   [5]  11 02 24 00 C8
  can0  121   [8]  00 01 12 4E 16 11 0C D0
  can0  122   [7]  FF FE 09 13 E9 32 00
  can0  0C1   [5]  12 02 24 00 C7
  can0  121   [8]  00 01 12 4E 16 11 0C D0
  can0  122   [7]  FF FE 08 93 E9 32 00
  can0  0C1   [5]  13 02 24 00 C6
  can0  121   [8]  00 01 12 4E 16 11 0C D0
  can0  122   [7]  FF FE 08 93 E9 32 00
  can0  0C1   [5]  14 02 24 00 C5
  can0  0D9   [4]  7D 7C 00 18
  can0  121   [8]  00 01 12 4E 16 11 0C D0
  can0  122   [7]  FF FE 08 93 E9 32 00
  can0  0C1   [5]  15 02 24 00 C4
  can0  121   [8]  00 01 12 4E 16 11 0C D0
  can0  122   [7]  FF FE 08 A3 E9 32 00
  can0  0C1   [5]  16 02 24 00 C3
  can0  121   [8]  00 01 12 4E 16 11 0C D0
  can0  122   [7]  FF FE 08 B3 E9 32 00
  can0  0C1   [5]  17 02 24 00 C2
  can0  121   [8]  00 01 12 4E 16 11 0C D0
  can0  122   [7]  FF FE 08 C3 E9 32 00
  can0  0C1   [5]  18 02 24 00 C1
  can0  121   [8]  00 01 12 4E 16 11 0C D0
  can0  122   [7]  FF FE 08 93 E9 32 00
  can0  0C1   [5]  19 02 24 00 C0
  can0  121   [8]  00 01 12 4E 16 11 0C D0
  can0  122   [7]  FF FE 08 93 E9 32 00
  can0  0C1   [5]  1A 02 24 00 BF
  can0  121   [8]  00 01 12 4E 16 11 0C D0
  can0  122   [7]  FF FE 08 93 E9 32 00
  can0  0C1   [5]  1B 02 24 00 BE
  can0  121   [8]  00 01 12 4E 16 11 0C D0
  can0  122   [7]  FF FE 08 B3 E9 32 00
  can0  0C1   [5]  1C 02 24 00 BD
  can0  121   [8]  00 01 12 4E 16 11 0C D0
  can0  122   [7]  FF FE 08 E3 E9 32 00
  can0  0C1   [5]  1D 02 24 00 BC
  can0  121   [8]  00 01 12 4E 16 11 0C D0
  can0  122   [7]  FF FE 09 03 E9 32 00
  can0  0C1   [5]  1E 02 24 00 BB
  can0  0D9   [4]  7D 7C 00 18
  can0  121   [8]  00 01 12 4E 16 11 0C D0
  can0  122   [7]  FF FE 08 E3 E9 32 00
  can0  0C1   [5]  1F 02 24 00 BA
  can0  121   [8]  00 01 12 4E 16 11 0C D0
  can0  122   [7]  FF FE 08 93 E9 32 00
  can0  0C1   [5]  20 02 24 00 B9
  can0  121   [8]  00 01 12 4E 16 11 0C D0
  can0  122   [7]  FF FE 08 F3 E9 32 00
  can0  0C1   [5]  21 02 24 00 B8
  can0  121   [8]  00 01 12 4E 16 11 0C D0
  can0  122   [7]  FF FE 08 93 E9 32 00
  can0  0C1   [5]  22 02 24 00 B7
  can0  121   [8]  00 01 12 4E 16 11 0C D0
  can0  122   [7]  FF FE 08 93 E9 32 00
  can0  0C1   [5]  23 02 24 00 B6
  can0  121   [8]  00 01 12 4E 16 11 0C D0
  can0  122   [7]  FF FE 08 93 E9 32 00
  can0  0C1   [5]  24 02 24 00 B5
  can0  121   [8]  00 01 12 4E 16 11 0C D0
  can0  122   [7]  FF FE 08 93 E9 32 00
  can0  0C1   [5]  25 02 24 00 B4
  can0  121   [8]  00 01 12 4E 16 11 0C D0
  can0  122   [7]  FF FE 09 23 E9 32 00
  can0  0C1   [5]  26 02 24 00 B3
  can0  121   [8]  00 01 12 4E 16 11 0C D0
  can0  122   [7]  FF FE 09 23 E9 32 00
  can0  0C1   [5]  27 02 24 00 B2
  can0  121   [8]  00 01 12 4E 16 11 0C D0
  can0  122   [7]  FF FE 09 13 E9 32 00
  can0  0C1   [5]  28 02 24 00 B1
  can0  0D9   [4]  7D 7C 00 18
  can0  121   [8]  00 01 12 4E 16 11 0C D0
  can0  122   [7]  FF FE 08 A3 E9 32 00
  can0  0C1   [5]  29 02 24 00 B0
  can0  121   [8]  00 01 12 4E 16 11 0C D0
  can0  122   [7]  FF FE 08 93 E9 32 00
  can0  0C1   [5]  2A 02 24 00 AF
  can0  121   [8]  00 01 12 4E 16 11 0C D0
  can0  122   [7]  FF FE 08 93 E9 32 00
  can0  0C1   [5]  2B 02 24 00 AE
  can0  121   [8]  00 01 12 4E 16 11 0C D0
  can0  122   [7]  FF FE 08 93 E9 32 00
  can0  0C1   [5]  2C 02 24 00 AD
  can0  121   [8]  00 01 12 4E 16 11 0C D0
  can0  122   [7]  FF FE 08 93 E9 32 00
  can0  0C1   [5]  2D 02 24 00 AC
  can0  121   [8]  00 01 12 4E 16 11 0C D0
  can0  122   [7]  FF FE 09 03 E9 32 00
  can0  0C1   [5]  2E 02 24 00 AB
  can0  121   [8]  00 01 12 4E 16 11 0C D0
  can0  122   [7]  FF FE 09 23 E9 32 00
  can0  0C1   [5]  2F 02 24 00 AA
  can0  121   [8]  00 01 12 4E 16 11 0C D0
  can0  122   [7]  FF FE 08 C3 E9 32 00
  can0  0C1   [5]  30 02 24 00 A9
  can0  121   [8]  00 01 12 4E 16 11 0C D0
  can0  122   [7]  FF FE 08 E3 E9 32 00
  can0  0C1   [5]  31 02 24 00 A8
  can0  121   [8]  00 01 12 4E 16 11 0C D0
  can0  122   [7]  FF FE 08 B3 E9 32 00
  can0  0C1   [5]  32 02 24 00 A7
  can0  0D9   [4]  7D 7C 00 18
  can0  121   [8]  00 01 12 4E 16 11 0C D0
  can0  122   [7]  FF FE 08 A3 E9 32 00
  can0  0C1   [5]  33 02 24 00 A6
  can0  121   [8]  00 01 12 4E 16 11 0C D0
  can0  122   [7]  FF FE 08 93 E9 32 00
  can0  0C1   [5]  34 02 24 00 A5
  can0  121   [8]  00 01 12 4E 16 11 0C D0
  can0  122   [7]  FF FE 08 93 E9 32 00
  can0  0C1   [5]  35 02 24 00 A4
  can0  121   [8]  00 01 12 4E 16 11 0C D0
  can0  122   [7]  FF FE 08 93 E9 32 00
  can0  0C1   [5]  36 02 24 00 A3
  can0  121   [8]  00 01 12 4E 16 11 0C D0
  can0  122   [7]  FF FE 08 B3 E9 32 00
  can0  0C1   [5]  37 02 24 00 A2
  can0  121   [8]  00 01 12 4E 16 11 0C D0
  can0  122   [7]  FF FE 09 03 E9 32 00
  can0  0C1   [5]  38 02 24 00 A1
  can0  121   [8]  00 01 12 4E 16 11 0C D0
  can0  122   [7]  FF FE 08 F3 E9 32 00
  can0  0C1   [5]  39 02 24 00 A0
  can0  121   [8]  00 01 12 4E 16 11 0C D0
  can0  122   [7]  FF FE 09 13 E9 32 00
  can0  121   [8]  00 01 12 4E 16 11 0C D0
  can0  0C1   [5]  3A 02 24 00 9F
  can0  122   [7]  FF FE 09 13 E9 32 00
  can0  0C1   [5]  3B 02 24 00 9E
  can0  121   [8]  00 01 12 4E 16 11 0C D0
  can0  122   [7]  FF FE 08 A3 E9 32 00
  can0  0C1   [5]  3C 02 24 00 9D
  can0  0D9   [4]  7D 7C 00 18
  can0  121   [8]  00 01 12 4E 16 11 0C D0
  can0  122   [7]  FF FE 08 93 E9 32 00
  can0  0C1   [5]  3D 02 24 00 9C
  can0  121   [8]  00 01 12 4E 16 11 0C D0
  can0  122   [7]  FF FE 08 93 E9 32 00
  can0  121   [8]  00 01 12 4E 16 11 0C D0
  can0  0C1   [5]  3E 02 24 00 9B
  can0  122   [7]  FF FE 08 93 E9 32 00
  can0  0C1   [5]  3F 02 24 00 9A
  can0  121   [8]  00 01 12 4E 16 11 0C D0
  can0  122   [7]  FF FE 08 93 E9 32 00
  can0  0C1   [5]  40 02 24 00 99
  can0  121   [8]  00 01 12 4E 16 11 0C D0
  can0  122   [7]  FF FE 09 23 E9 32 00
  can0  0C1   [5]  41 02 24 00 98
  can0  121   [8]  00 01 12 4E 16 11 0C D0
  can0  122   [7]  FF FE 08 F3 E9 32 00
  can0  0C1   [5]  42 02 24 00 97
  can0  121   [8]  00 01 12 4E 16 11 0C D0
  can0  122   [7]  FF FE 08 C3 E9 32 00
  can0  0C1   [5]  43 02 24 00 96
  can0  121   [8]  00 01 12 4E 16 11 0C D0
  can0  122   [7]  FF FE 08 F3 E9 32 00
  can0  0C1   [5]  44 02 24 00 95
  can0  121   [8]  00 01 12 4E 16 11 0C D0
  can0  122   [7]  FF FE 08 93 E9 32 00
  can0  0C1   [5]  45 02 24 00 94
  can0  121   [8]  00 01 12 4E 16 11 0C D0
  can0  122   [7]  FF FE 08 93 E9 32 00
  can0  0C1   [5]  46 02 24 00 93
  can0  0D9   [4]  7C 7C 00 18
  can0  121   [8]  00 01 12 4E 16 11 0C D0
  can0  122   [7]  FF FE 08 93 E9 32 00
  can0  0C1   [5]  47 02 24 00 92
  can0  121   [8]  00 01 12 4E 16 11 0C D0
  can0  122   [7]  FF FE 08 93 E9 32 00
  can0  121   [8]  00 01 12 4E 16 11 0C D0
  can0  0C1   [5]  48 02 24 00 91
  can0  122   [7]  FF FE 08 B3 E9 32 00
  can0  0C1   [5]  49 02 24 00 90
  can0  121   [8]  00 01 12 4E 16 11 0C D0
  can0  122   [7]  FF FE 08 B3 E9 32 00
  can0  121   [8]  00 01 12 4E 16 11 0C D0
  can0  0C1   [5]  4A 02 24 00 8F
  can0  122   [7]  FF FE 09 03 E9 32 00
  can0  0C1   [5]  4B 02 24 00 8E
  can0  121   [8]  00 01 12 4E 16 11 0C D0
  can0  122   [7]  FF FE 08 E3 E9 32 00
  can0  0C1   [5]  4C 02 24 00 8D
  can0  121   [8]  00 01 12 4E 16 11 0C D0
  can0  122   [7]  FF FE 08 B3 E9 32 00
  can0  0C1   [5]  4D 02 24 00 8C
  can0  121   [8]  00 01 12 4E 16 11 0C D0
  can0  122   [7]  FF FE 09 53 E9 32 00
  can0  0C1   [5]  4E 02 24 00 8B
  can0  121   [8]  00 01 12 4E 16 11 0C D0
  can0  122   [7]  FF FE 09 03 E9 32 00
  can0  0C1   [5]  4F 02 24 00 8A
  can0  121   [8]  00 01 12 4E 16 11 0C D0
  can0  122   [7]  FF FE 08 93 E9 32 00
  can0  121   [8]  00 01 12 4E 16 11 0C D0
  can0  0C1   [5]  50 02 24 00 89
  can0  0D9   [4]  7D 7C 00 18
  can0  122   [7]  FF FE 08 93 E9 32 00
  can0  0C1   [5]  51 02 24 00 88
  can0  121   [8]  00 01 12 4E 16 11 0C D0
  can0  122   [7]  FF FE 08 93 E9 32 00
  can0  0C1   [5]  52 02 24 00 87
  can0  121   [8]  00 01 12 4E 16 11 0C D0
  can0  122   [7]  FF FE 08 F3 E9 32 00
  can0  0C1   [5]  53 02 24 00 86
  can0  121   [8]  00 01 12 4E 16 11 0C D0
  can0  122   [7]  FF FE 08 93 E9 32 00
  can0  0C1   [5]  54 02 24 00 85
  can0  121   [8]  00 01 12 4E 16 11 0C D0
  can0  122   [7]  FF FE 08 E3 E9 32 00
  can0  0C1   [5]  55 02 24 00 84
  can0  121   [8]  00 01 12 4E 16 11 0C D0
  can0  122   [7]  FF FE 08 A3 E9 32 00
  can0  0C1   [5]  56 02 24 00 83
  can0  121   [8]  00 01 12 4E 16 11 0C D0
  can0  122   [7]  FF FE 08 A3 E9 32 00
  can0  0C1   [5]  57 02 24 00 82
  can0  121   [8]  00 01 12 4E 16 11 0C D0
  can0  122   [7]  FF FE 08 93 E9 32 00
  can0  0C1   [5]  58 02 24 00 81
  can0  121   [8]  00 01 12 4E 16 11 0C D0
  can0  122   [7]  FF FE 08 F3 E9 32 00
  can0  0C1   [5]  59 02 24 00 80
  can0  121   [8]  00 01 12 4E 16 11 0C D0
  can0  122   [7]  FF FE 08 93 E9 32 00
  can0  121   [8]  00 01 12 4E 16 11 0C D0
  can0  0C1   [5]  5A 02 24 00 7F
  can0  0D9   [4]  7D 7C 00 18
  can0  122   [7]  FF FE 08 93 E9 32 00
  can0  0C1   [5]  5B 02 24 00 7E
  can0  121   [8]  00 01 12 4E 16 11 0C D0
  can0  122   [7]  FF FE 08 93 E9 32 00
  can0  0C1   [5]  5C 02 24 00 7D
  can0  121   [8]  00 01 12 4E 16 11 0C D0
  can0  122   [7]  FF FE 08 93 E9 32 00
  can0  0C1   [5]  5D 02 24 00 7C
  can0  121   [8]  00 01 12 4E 16 11 0C D0
  can0  122   [7]  FF FE 08 93 E9 32 00
  can0  0C1   [5]  5E 02 24 00 7B
  can0  121   [8]  00 01 12 4E 16 11 0C D0
  can0  122   [7]  FF FE 08 A3 E9 32 00
  can0  0C1   [5]  5F 02 24 00 7A
  can0  121   [8]  00 01 12 4E 16 11 0C D0
  can0  122   [7]  FF FE 08 93 E9 32 00
  can0  0C1   [5]  60 02 24 00 79
  can0  121   [8]  00 01 12 4E 16 11 0C D0
  can0  122   [7]  FF FE 08 B3 E9 32 00
  can0  0C1   [5]  61 02 24 00 78
  can0  121   [8]  00 01 12 4E 16 11 0C D0
  can0  122   [7]  FF FE 08 93 E9 32 00
  can0  0C1   [5]  62 02 24 00 77
  can0  121   [8]  00 01 12 4E 16 11 0C D0
  can0  122   [7]  FF FE 08 93 E9 32 00
  can0  0C1   [5]  63 02 24 00 76
  can0  121   [8]  00 01 12 4E 16 11 0C D0
  can0  122   [7]  FF FE 08 93 E9 32 00
  can0  0C1   [5]  64 02 24 00 75
  can0  0D9   [4]  7D 7C 00 18
  can0  121   [8]  00 01 12 4E 16 11 0C D0
  can0  122   [7]  FF FE 08 93 E9 32 00
  can0  0C1   [5]  65 02 24 00 74
  can0  121   [8]  00 01 12 4E 16 11 0C D0
  can0  122   [7]  FF FE 08 93 E9 32 00
  can0  0C1   [5]  66 02 24 00 73
  can0  121   [8]  00 01 12 4E 16 11 0C D0
  can0  122   [7]  FF FE 08 93 E9 32 00
  can0  0C1   [5]  67 02 24 00 72
  can0  121   [8]  00 01 12 4E 16 11 0C D0
  can0  122   [7]  FF FE 08 93 E9 32 00
  can0  0C1   [5]  68 02 24 00 71
  can0  121   [8]  00 01 12 4E 16 11 0C D0
  can0  122   [7]  FF FE 08 93 E9 32 00
  can0  0C1   [5]  69 02 24 00 70
  can0  121   [8]  00 01 12 4E 16 11 0C D0
  can0  122   [7]  FF FE 08 93 E9 32 00
  can0  0C1   [5]  6A 02 24 00 6F
  can0  121   [8]  00 01 12 4E 16 11 0C D0
  can0  122   [7]  FF FE 08 93 E9 32 00
  can0  0C1   [5]  6B 02 24 00 6E
  can0  121   [8]  00 01 12 4E 16 11 0C D0
  can0  122   [7]  FF FE 08 93 E9 32 00
  can0  0C1   [5]  6C 02 24 00 6D
  can0  121   [8]  00 01 12 4E 16 11 0C D0
  can0  122   [7]  FF FE 08 93 E9 32 00
  can0  121   [8]  00 01 12 4E 16 11 0C D0
  can0  0C1   [5]  6D 02 24 00 6C
  can0  122   [7]  FF FE 08 93 E9 32 00
  can0  0C1   [5]  6E 02 24 00 6B
  can0  0D9   [4]  7D 7C 00 18
  can0  121   [8]  00 01 12 4E 16 11 0C D0
  can0  122   [7]  FF FE 08 93 E9 32 00
  can0  0C1   [5]  6F 02 24 00 6A
  can0  121   [8]  00 01 12 4E 16 11 0C D0
  can0  122   [7]  FF FE 08 93 E9 32 00
  can0  121   [8]  00 01 12 4E 16 11 0C D0
  can0  0C1   [5]  70 02 24 00 69
  can0  122   [7]  FF FE 08 93 E9 32 00
  can0  0C1   [5]  71 02 24 00 68
  can0  121   [8]  00 01 12 4E 16 11 0C D0
  can0  122   [7]  FF FE 08 93 E9 32 00
  can0  121   [8]  00 01 12 4E 16 11 0C D0
  can0  0C1   [5]  72 02 24 00 67
  can0  122   [7]  FF FE 08 93 E9 32 00
  can0  0C1   [5]  73 02 24 00 66
  can0  121   [8]  00 01 12 4E 16 11 0C D0
  can0  122   [7]  FF FE 08 93 E9 32 00
  can0  0C1   [5]  74 02 24 00 65
  can0  121   [8]  00 01 12 4E 16 11 0C D0
  can0  122   [7]  FF FE 09 13 E9 32 00
  can0  121   [8]  00 01 12 4E 16 11 0C D0
  can0  0C1   [5]  75 02 24 00 64
  can0  122   [7]  FF FE 08 93 E9 32 00
  can0  0C1   [5]  76 02 24 00 63
  can0  121   [8]  00 01 12 4E 16 11 0C D0
  can0  122   [7]  FF FE 08 93 E9 32 00
  can0  0C1   [5]  77 02 24 00 62
  can0  121   [8]  00 01 12 4E 16 11 0C D0
  can0  122   [7]  FF FE 08 93 E9 32 00
  can0  0C1   [5]  78 02 24 00 61
  can0  0D9   [4]  7D 7C 00 18
  can0  121   [8]  00 01 12 4E 16 11 0C D0
  can0  122   [7]  FF FE 08 93 E9 32 00
  can0  0C1   [5]  79 02 24 00 60
  can0  121   [8]  00 01 12 4E 16 11 0C D0
  can0  122   [7]  FF FE 08 93 E9 32 00
  can0  0C1   [5]  7A 02 24 00 5F
  can0  121   [8]  00 01 12 4E 16 11 0C D0
  can0  122   [7]  FF FE 08 A3 E9 32 00
  can0  0C1   [5]  7B 02 24 00 5E
  can0  121   [8]  00 01 12 4E 16 11 0C D0
  can0  122   [7]  FF FE 08 93 E9 32 00
  can0  0C1   [5]  7C 02 24 00 5D
  can0  121   [8]  00 01 12 4E 16 11 0C D0
  can0  122   [7]  FF FE 08 C3 E9 32 00
  can0  121   [8]  00 01 12 4E 16 11 0C D0
  can0  0C1   [5]  7D 02 24 00 5C
  can0  122   [7]  FF FE 08 A3 E9 32 00
  can0  0C1   [5]  7E 02 24 00 5B
  can0  121   [8]  00 01 12 4E 16 11 0C D0
  can0  122   [7]  FF FE 08 93 E9 32 00
  can0  0C1   [5]  7F 02 24 00 5A
  can0  121   [8]  00 01 12 4E 16 11 0C D0
  can0  122   [7]  FF FE 08 93 E9 32 00
  can0  0C1   [5]  80 02 24 00 59
  can0  121   [8]  00 01 12 4E 16 11 0C D0
  can0  122   [7]  FF FE 08 B3 E9 32 00
  can0  0C1   [5]  81 02 24 00 58
  can0  121   [8]  00 01 12 4E 16 11 0C D0
  can0  122   [7]  FF FE 08 93 E9 32 00
  can0  0C1   [5]  82 02 24 00 57
  can0  0D9   [4]  7D 7C 00 18
  can0  121   [8]  00 01 12 4E 16 11 0C D0
  can0  122   [7]  FF FE 08 93 E9 32 00
  can0  0C1   [5]  83 02 24 00 56
  can0  121   [8]  00 01 12 4E 16 11 0C D0
  can0  122   [7]  FF FE 08 93 E9 32 00
  can0  0C1   [5]  84 02 24 00 55
  can0  121   [8]  00 01 12 4E 16 11 0C D0
  can0  122   [7]  FF FE 08 93 E9 32 00
  can0  0C1   [5]  85 02 24 00 54
  can0  121   [8]  00 01 12 4E 16 11 0C D0
  can0  122   [7]  FF FE 08 F3 E9 32 00
  can0  0C1   [5]  86 02 24 00 53
  can0  121   [8]  00 01 12 4E 16 11 0C D0
  can0  122   [7]  FF FE 08 F3 E9 32 00
  can0  0C1   [5]  87 02 24 00 52
  can0  121   [8]  00 01 12 4E 16 11 0C D0
  can0  122   [7]  FF FE 08 C3 E9 32 00
  can0  0C1   [5]  88 02 24 00 51
  can0  121   [8]  00 01 12 4E 16 11 0C D0
  can0  122   [7]  FF FE 08 C3 E9 32 00
  can0  0C1   [5]  89 02 24 00 50
  can0  121   [8]  00 01 12 4E 16 11 0C D0
  can0  122   [7]  FF FE 08 93 E9 32 00
  can0  0C1   [5]  8A 02 24 00 4F
  can0  121   [8]  00 01 12 4E 16 11 0C D0
  can0  122   [7]  FF FE 08 E3 E9 32 00
  can0  0C1   [5]  8B 02 24 00 4E
  can0  121   [8]  00 01 12 4E 16 11 0C D0
  can0  122   [7]  FF FE 08 93 E9 32 00
  can0  0C1   [5]  8C 02 24 00 4D
  can0  0D9   [4]  7D 7C 00 18
  can0  121   [8]  00 01 12 4E 16 11 0C D0
  can0  122   [7]  FF FE 08 93 E9 32 00
  can0  0C1   [5]  8D 02 24 00 4C
  can0  121   [8]  00 01 12 4E 16 11 0C D0
  can0  122   [7]  FF FE 08 A3 E9 32 00
  can0  0C1   [5]  8E 02 24 00 4B
  can0  121   [8]  00 01 12 4E 16 11 0C D0
  can0  122   [7]  FF FE 08 93 E9 32 00
  can0  0C1   [5]  8F 02 24 00 4A
  can0  121   [8]  00 01 12 4E 16 11 0C D0
  can0  122   [7]  FF FE 08 93 E9 32 00
  can0  0C1   [5]  90 02 24 00 49
  can0  121   [8]  00 01 12 4E 16 11 0C D0
  can0  122   [7]  FF FE 08 93 E9 32 00
  can0  0C1   [5]  91 02 24 00 48
  can0  121   [8]  00 01 12 4E 16 11 0C D0
  can0  122   [7]  FF FE 08 A3 E9 32 00
  can0  0C1   [5]  92 02 24 00 47
  can0  121   [8]  00 01 12 4E 16 11 0C D0
  can0  122   [7]  FF FE 08 93 E9 32 00
  can0  0C1   [5]  93 02 24 00 46
  can0  121   [8]  00 01 12 4E 16 11 0C D0
  can0  122   [7]  FF FE 08 93 E9 32 00
  can0  0C1   [5]  94 02 24 00 45
  can0  121   [8]  00 01 12 4E 16 11 0C D0
  can0  122   [7]  FF FE 08 93 E9 32 00
  can0  0C1   [5]  95 02 24 00 44
  can0  121   [8]  00 01 12 4E 16 11 0C D0
  can0  122   [7]  FF FE 08 93 E9 32 00
  can0  0C1   [5]  96 02 24 00 43
  can0  0D9   [4]  7D 7C 00 18
  can0  121   [8]  00 01 12 4E 16 11 0C D0
  can0  122   [7]  FF FE 08 93 E9 32 00
  can0  0C1   [5]  97 02 24 00 42
  can0  121   [8]  00 01 12 4E 16 11 0C D0
  can0  122   [7]  FF FE 08 93 E9 32 00
  can0  0C1   [5]  98 02 24 00 41
  can0  121   [8]  00 01 12 4E 16 11 0C D0
  can0  122   [7]  FF FE 08 93 E9 32 00
  can0  0C1   [5]  99 02 24 00 40
  can0  121   [8]  00 01 12 4E 16 11 0C D0
  can0  122   [7]  FF FE 08 93 E9 32 00
  can0  0C1   [5]  9A 02 24 00 3F
  can0  121   [8]  00 01 12 4E 16 11 0C D0
  can0  122   [7]  FF FE 09 13 E9 32 00
  can0  0C1   [5]  9B 02 24 00 3E
  can0  121   [8]  00 01 12 4E 16 11 0C D0
  can0  122   [7]  FF FE 09 03 E9 32 00
  can0  0C1   [5]  9C 02 24 00 3D
  can0  121   [8]  00 01 12 4E 16 11 0C D0
  can0  122   [7]  FF FE 08 B3 E9 32 00
  can0  0C1   [5]  9D 02 24 00 3C
  can0  121   [8]  00 01 12 4E 16 11 0C D0
  can0  122   [7]  FF FE 08 93 E9 32 00
  can0  121   [8]  00 01 12 4E 16 11 0C D0
  can0  0C1   [5]  9E 02 24 00 3B
  can0  122   [7]  FF FE 08 C3 E9 32 00
  can0  0C1   [5]  9F 02 24 00 3A
  can0  121   [8]  00 01 12 4E 16 11 0C D0
  can0  122   [7]  FF FE 08 93 E9 32 00
  can0  0C1   [5]  A0 02 24 00 39
  can0  0D9   [4]  7D 7C 00 18
  can0  121   [8]  00 01 12 4E 16 11 0C D0
  can0  122   [7]  FF FE 08 93 E9 32 00
  can0  0C1   [5]  A1 02 24 00 38
  can0  121   [8]  00 01 12 4E 16 11 0C D0
  can0  122   [7]  FF FE 08 93 E9 32 00
  can0  0C1   [5]  A2 02 24 00 37
  can0  121   [8]  00 01 12 4E 16 11 0C D0
  can0  122   [7]  FF FE 08 93 E9 32 00
  can0  0C1   [5]  A3 02 24 00 36
  can0  121   [8]  00 01 12 4E 16 11 0C D0
  can0  122   [7]  FF FE 08 F3 E9 32 00
  can0  0C1   [5]  A4 02 24 00 35
  can0  121   [8]  00 01 12 4E 16 11 0C D0
  can0  122   [7]  FF FE 09 03 E9 32 00
  can0  0C1   [5]  A5 02 24 00 34
  can0  121   [8]  00 01 12 4E 16 11 0C D0
  can0  122   [7]  FF FE 08 A3 E9 32 00
  can0  0C1   [5]  A6 02 24 00 33
  can0  121   [8]  00 01 12 4E 16 11 0C D0
  can0  122   [7]  FF FE 09 03 E9 32 00
  can0  0C1   [5]  A7 02 24 00 32
  can0  121   [8]  00 01 12 4E 16 11 0C D0
  can0  122   [7]  FF FE 08 C3 E9 32 00
  can0  0C1   [5]  A8 02 24 00 31
  can0  121   [8]  00 01 12 4E 16 11 0C D0
  can0  122   [7]  FF FE 09 13 E9 32 00
  can0  121   [8]  00 01 12 4E 16 11 0C D0
  can0  0C1   [5]  A9 02 24 00 30
  can0  122   [7]  FF FE 08 93 E9 32 00
  can0  0C1   [5]  AA 02 24 00 2F
  can0  0D9   [4]  7D 7C 00 18
  can0  121   [8]  00 01 12 4E 16 11 0C D0
  can0  122   [7]  FF FE 08 93 E9 32 00
  can0  0C1   [5]  AB 02 24 00 2E
  can0  121   [8]  00 01 12 4E 16 11 0C D0
  can0  122   [7]  FF FE 08 93 E9 32 00
  can0  0C1   [5]  AC 02 24 00 2D
  can0  121   [8]  00 01 12 4E 16 11 0C D0
  can0  122   [7]  FF FE 08 93 E9 32 00
  can0  0C1   [5]  AD 02 24 00 2C
  can0  121   [8]  00 01 12 4E 16 11 0C D0
  can0  122   [7]  FF FE 08 93 E9 32 00
  can0  121   [8]  00 01 12 4E 16 11 0C D0
  can0  0C1   [5]  AE 02 24 00 2B
  can0  122   [7]  FF FE 08 93 E9 32 00
  can0  0C1   [5]  AF 02 24 00 2A
  can0  121   [8]  00 01 12 4E 16 11 0C D0
  can0  122   [7]  FF FE 08 C3 E9 32 00
  can0  121   [8]  00 01 12 4E 16 11 0C D0
  can0  0C1   [5]  B0 02 24 00 29
  can0  122   [7]  FF FE 08 F3 E9 32 00
  can0  0C1   [5]  B1 02 24 00 28
  can0  121   [8]  00 01 12 4E 16 11 0C D0
  can0  122   [7]  FF FE 08 93 E9 32 00
  can0  0C1   [5]  B2 02 24 00 27
  can0  121   [8]  00 01 12 4E 16 11 0C D0
  can0  122   [7]  FF FE 08 93 E9 32 00
  can0  0C1   [5]  B3 02 24 00 26
  can0  121   [8]  00 01 12 4E 16 11 0C D0
  can0  122   [7]  FF FE 08 93 E9 32 00
  can0  121   [8]  00 01 12 4E 16 11 0C D0
  can0  0C1   [5]  B4 02 24 00 25
  can0  0D9   [4]  7D 7C 00 18
  can0  122   [7]  FF FE 08 93 E9 32 00
  can0  121   [8]  00 01 12 4E 16 11 0C D0
  can0  0C1   [5]  B5 02 24 00 24
  can0  122   [7]  FF FE 08 93 E9 32 00
  can0  0C1   [5]  B6 02 24 00 23
  can0  121   [8]  00 01 12 4E 16 11 0C D0
  can0  122   [7]  FF FE 08 F3 E9 32 00
  can0  0C1   [5]  B7 02 24 00 22
  can0  121   [8]  00 01 12 4E 16 11 0C D0
  can0  122   [7]  FF FE 09 03 E9 32 00
  can0  0C1   [5]  B8 02 24 00 21
  can0  121   [8]  00 01 12 4E 16 11 0C D0
  can0  122   [7]  FF FE 08 93 E9 32 00
  can0  0C1   [5]  B9 02 24 00 20
  can0  121   [8]  00 01 12 4E 16 11 0C D0
  can0  122   [7]  FF FE 08 93 E9 32 00
  can0  0C1   [5]  BA 02 24 00 1F
  can0  121   [8]  00 01 12 4E 16 11 0C D0
  can0  122   [7]  FF FE 08 E3 E9 32 00
  can0  0C1   [5]  BB 02 24 00 1E
  can0  121   [8]  00 01 12 4E 16 11 0C D0
  can0  122   [7]  FF FE 08 93 E9 32 00
  can0  0C1   [5]  BC 02 24 00 1D
  can0  121   [8]  00 01 12 4E 16 11 0C D0
  can0  122   [7]  FF FE 08 93 E9 32 00
  can0  0C1   [5]  BD 02 24 00 1C
  can0  121   [8]  00 01 12 4E 16 11 0C D0
  can0  122   [7]  FF FE 08 93 E9 32 00
  can0  0C1   [5]  BE 02 24 00 1B
  can0  0D9   [4]  7D 7C 00 18
  can0  121   [8]  00 01 12 4E 16 11 0C D0
  can0  122   [7]  FF FE 08 A3 E9 32 00
  can0  0C1   [5]  BF 02 24 00 1A
  can0  121   [8]  00 01 12 4E 16 11 0C D0
  can0  122   [7]  FF FE 08 B3 E9 32 00
  can0  0C1   [5]  C0 02 24 00 19
  can0  121   [8]  00 01 12 4E 16 11 0C D0
  can0  122   [7]  FF FE 09 33 E9 32 00
  can0  0C1   [5]  C1 02 24 00 18
  can0  121   [8]  00 01 12 4E 16 11 0C D0
  can0  122   [7]  FF FE 08 A3 E9 32 00
  can0  0C1   [5]  C2 02 24 00 17
  can0  121   [8]  00 01 12 4E 16 11 0C D0
  can0  122   [7]  FF FE 08 F3 E9 32 00
  can0  0C1   [5]  C3 02 24 00 16
  can0  121   [8]  00 01 12 4E 16 11 0C D0
  can0  122   [7]  FF FE 08 A3 E9 32 00
  can0  0C1   [5]  C4 02 24 00 15
  can0  121   [8]  00 01 12 4E 16 11 0C D0
  can0  122   [7]  FF FE 08 93 E9 32 00
  can0  0C1   [5]  C5 02 24 00 14
  can0  121   [8]  00 01 12 4E 16 11 0C D0
  can0  122   [7]  FF FE 08 B3 E9 32 00
  can0  0C1   [5]  C6 02 24 00 13
  can0  121   [8]  00 01 12 4E 16 11 0C D0
  can0  122   [7]  FF FE 08 93 E9 32 00
  can0  0C1   [5]  C7 02 24 00 12
  can0  121   [8]  00 01 12 4E 16 11 0C D0
  can0  122   [7]  FF FE 08 93 E9 32 00
  can0  0C1   [5]  C8 02 24 00 11
  can0  0D9   [4]  7D 7C 00 18
  can0  121   [8]  00 01 12 4E 16 11 0C D0
  can0  122   [7]  FF FE 08 93 E9 32 00
  can0  0C1   [5]  C9 02 24 00 10
  can0  121   [8]  00 01 12 4E 16 11 0C D0
  can0  122   [7]  FF FE 08 E3 E9 32 00
  can0  0C1   [5]  CA 02 24 00 0F
  can0  121   [8]  00 01 12 4E 16 11 0C D0
  can0  122   [7]  FF FE 08 F3 E9 32 00
  can0  0C1   [5]  CB 02 24 00 0E
  can0  121   [8]  00 01 12 4E 16 11 0C D0
  can0  122   [7]  FF FE 09 23 E9 32 00
  can0  0C1   [5]  CC 02 24 00 0D
  can0  121   [8]  00 01 12 4E 16 11 0C D0
  can0  122   [7]  FF FE 09 03 E9 32 00
  can0  0C1   [5]  CD 02 24 00 0C
  can0  121   [8]  00 01 12 4E 16 11 0C D0
  can0  122   [7]  FF FE 09 03 E9 32 00
  can0  0C1   [5]  CE 02 24 00 0B
  can0  121   [8]  00 01 12 4E 16 11 0C D0
  can0  122   [7]  FF FE 08 93 E9 32 00
  can0  0C1   [5]  CF 02 24 00 0A
  can0  121   [8]  00 01 12 4E 16 11 0C D0
  can0  122   [7]  FF FE 08 93 E9 32 00
  can0  0C1   [5]  D0 02 24 00 09
  can0  121   [8]  00 01 12 4E 16 11 0C D0
  can0  122   [7]  FF FE 08 93 E9 32 00
  can0  0C1   [5]  D1 02 24 00 08
  can0  121   [8]  00 01 12 4E 16 11 0C D0
  can0  122   [7]  FF FE 08 93 E9 32 00
  can0  0C1   [5]  D2 02 24 00 07
  can0  0D9   [4]  7D 7C 00 18
  can0  121   [8]  00 01 12 4E 16 11 0C D0
  can0  122   [7]  FF FE 08 93 E9 32 00
  can0  0C1   [5]  D3 02 24 00 06
  can0  121   [8]  00 01 12 4E 16 11 0C D0
  can0  122   [7]  FF FE 08 E3 E9 32 00
  can0  0C1   [5]  D4 02 24 00 05
  can0  121   [8]  00 01 12 4E 16 11 0C D0
  can0  122   [7]  FF FE 08 F3 E9 32 00
  can0  0C1   [5]  D5 02 24 00 04
  can0  121   [8]  00 01 12 4E 16 11 0C D0
  can0  122   [7]  FF FE 08 B3 E9 32 00
  can0  0C1   [5]  D6 02 24 00 03
  can0  121   [8]  00 01 12 4E 16 11 0C D0
  can0  122   [7]  FF FE 08 93 E9 32 00
  can0  0C1   [5]  D7 02 24 00 02
  can0  121   [8]  00 01 12 4E 16 11 0C D0
  can0  122   [7]  FF FE 08 93 E9 32 00
  can0  0C1   [5]  D8 02 24 00 01
  can0  121   [8]  00 01 12 4E 16 11 0C D0
  can0  122   [7]  FF FE 08 E3 E9 32 00
  can0  0C1   [5]  D9 02 24 00 00
  can0  121   [8]  00 01 12 4E 16 11 0C D0
  can0  122   [7]  FF FE 08 F3 E9 32 00
  can0  0C1   [5]  DA 02 24 00 FF
  can0  121   [8]  00 01 12 4E 16 11 0C D0
  can0  122   [7]  FF FE 08 93 E9 32 00
  can0  121   [8]  00 01 12 4E 16 11 0C D0
  can0  0C1   [5]  DB 02 24 00 FE
  can0  122   [7]  FF FE 08 93 E9 32 00
  can0  0C1   [5]  DC 02 24 00 FD
  can0  0D9   [4]  7D 7C 00 18
  can0  121   [8]  00 01 12 4E 16 11 0C D0
  can0  122   [7]  FF FE 08 93 E9 32 00
  can0  0C1   [5]  DD 02 24 00 FC
  can0  121   [8]  00 01 12 4E 16 11 0C D0
  can0  122   [7]  FF FE 08 93 E9 32 00
  can0  0C1   [5]  DE 02 24 00 FB
  can0  121   [8]  00 01 12 4E 16 11 0C D0
  can0  122   [7]  FF FE 08 B3 E9 32 00
  can0  0C1   [5]  DF 02 24 00 FA
  can0  121   [8]  00 01 12 4E 16 11 0C D0
  can0  122   [7]  FF FE 08 F3 E9 32 00
  can0  121   [8]  00 01 12 4E 16 11 0C D0
  can0  0C1   [5]  E0 02 24 00 F9
  can0  122   [7]  FF FE 08 93 E9 32 00
  can0  0C1   [5]  E1 02 24 00 F8
  can0  121   [8]  00 01 12 4E 16 11 0C D0
  can0  122   [7]  FF FE 08 93 E9 32 00
  can0  0C1   [5]  E2 02 24 00 F7
  can0  121   [8]  00 01 12 4E 16 11 0C D0
  can0  122   [7]  FF FE 08 B3 E9 32 00
  can0  121   [8]  00 01 12 4E 16 11 0C D0
  can0  0C1   [5]  E3 02 24 00 F6
  can0  122   [7]  FF FE 08 E3 E9 32 00
  can0  0C1   [5]  E4 02 24 00 F5
  can0  121   [8]  00 01 12 4E 16 11 0C D0
  can0  122   [7]  FF FE 09 13 E9 32 00
  can0  0C1   [5]  E5 02 24 00 F4
  can0  121   [8]  00 01 12 4E 16 11 0C D0
  can0  122   [7]  FF FE 08 C3 E9 32 00
  can0  0C1   [5]  E6 02 24 00 F3
  can0  0D9   [4]  7D 7C 00 18
  can0  121   [8]  00 01 12 4E 16 11 0C D0
  can0  122   [7]  FF FE 09 03 E9 32 00
  can0  0C1   [5]  E7 02 24 00 F2
  can0  121   [8]  00 01 12 4E 16 11 0C D0
  can0  122   [7]  FF FE 08 93 E9 32 00
  can0  0C1   [5]  E8 02 24 00 F1
  can0  121   [8]  00 01 12 4E 16 11 0C D0
  can0  122   [7]  FF FE 08 93 E9 32 00
  can0  0C1   [5]  E9 02 24 00 F0
  can0  121   [8]  00 01 12 4E 16 11 0C D0
  can0  122   [7]  FF FE 08 93 E9 32 00
  can0  0C1   [5]  EA 02 24 00 EF
  can0  121   [8]  00 01 12 4E 16 11 0C D0
  can0  122   [7]  FF FE 08 93 E9 32 00
  can0  0C1   [5]  EB 02 24 00 EE
  can0  121   [8]  00 01 12 4E 16 11 0C D0
  can0  122   [7]  FF FE 08 93 E9 32 00
  can0  0C1   [5]  EC 02 24 00 ED
  can0  121   [8]  00 01 12 4E 16 11 0C D0
  can0  122   [7]  FF FE 08 93 E9 32 00
  can0  0C1   [5]  ED 02 24 00 EC
  can0  121   [8]  00 01 12 4E 16 11 0C D0
  can0  122   [7]  FF FE 09 03 E9 32 00
  can0  0C1   [5]  EE 02 24 00 EB
  can0  121   [8]  00 01 12 4E 16 11 0C D0
  can0  122   [7]  FF FE 08 F3 E9 32 00
  can0  0C1   [5]  EF 02 24 00 EA
  can0  121   [8]  00 01 12 4E 16 11 0C D0
  can0  122   [7]  FF FE 09 53 E9 32 00
  can0  0C1   [5]  F0 02 24 00 E9
  can0  0D9   [4]  7D 7C 00 18
  can0  121   [8]  00 01 12 4E 16 11 0C D0
  can0  122   [7]  FF FE 08 F3 E9 32 00
  can0  0C1   [5]  F1 02 24 00 E8
  can0  121   [8]  00 01 12 4E 16 11 0C D0
  can0  122   [7]  FF FE 08 93 E9 32 00
  can0  0C1   [5]  F2 02 24 00 E7
  can0  121   [8]  00 01 12 4E 16 11 0C D0
  can0  122   [7]  FF FE 08 93 E9 32 00
  can0  0C1   [5]  F3 02 24 00 E6
  can0  121   [8]  00 01 12 4E 16 11 0C D0
  can0  122   [7]  FF FE 08 F3 E9 32 00
  can0  0C1   [5]  F4 02 24 00 E5
  can0  121   [8]  00 01 12 4E 16 11 0C D0
  can0  122   [7]  FF FE 08 F3 E9 32 00
  can0  0C1   [5]  F5 02 24 00 E4
  can0  121   [8]  00 01 12 4E 16 11 0C D0
  can0  122   [7]  FF FE 08 93 E9 32 00
  can0  0C1   [5]  F6 02 24 00 E3
  can0  121   [8]  00 01 12 4E 16 11 0C D0
  can0  122   [7]  FF FE 08 93 E9 32 00
  can0  0C1   [5]  F7 02 24 00 E2
  can0  121   [8]  00 01 12 4E 16 11 0C D0
  can0  122   [7]  FF FE 08 93 E9 32 00
  can0  0C1   [5]  F8 02 24 00 E1
  can0  121   [8]  00 01 12 4E 16 11 0C D0
  can0  122   [7]  FF FE 08 93 E9 32 00
  can0  0C1   [5]  F9 02 24 00 E0
  can0  121   [8]  00 01 12 4E 16 11 0C D0
  can0  122   [7]  FF FE 08 A3 E9 32 00
  can0  0C1   [5]  FA 02 24 00 DF
  can0  0D9   [4]  7D 7C 00 18
  can0  121   [8]  00 01 12 4E 16 11 0C D0
  can0  122   [7]  FF FE 08 A3 E9 32 00
  can0  0C1   [5]  FB 02 24 00 DE
  can0  121   [8]  00 01 12 4E 16 11 0C D0
  can0  122   [7]  FF FE 08 93 E9 32 00
  can0  0C1   [5]  FC 02 24 00 DD
  can0  121   [8]  00 01 12 4E 16 11 0C D0
  can0  122   [7]  FF FE 08 E3 E9 32 00
  can0  0C1   [5]  FD 02 24 00 DC
  can0  121   [8]  00 01 12 4E 16 11 0C D0
  can0  122   [7]  FF FE 09 13 E9 32 00
  can0  0C1   [5]  FE 02 24 00 DB
  can0  121   [8]  00 01 12 4E 16 11 0C D0
  can0  122   [7]  FF FE 09 33 E9 32 00
  can0  0C1   [5]  FF 02 24 00 DA
  can0  121   [8]  00 01 12 4E 16 11 0C D0
  can0  122   [7]  FF FE 08 C3 E9 32 00
  can0  0C1   [5]  00 02 24 00 D9
  can0  121   [8]  00 01 12 4E 16 11 0C D0
  can0  122   [7]  FF FE 08 93 E9 32 00
  can0  121   [8]  00 01 12 4E 16 11 0C D0
  can0  0C1   [5]  01 02 24 00 D8
  can0  122   [7]  FF FE 08 C3 E9 32 00
  can0  0C1   [5]  02 02 24 00 D7
  can0  121   [8]  00 01 12 4E 16 11 0C D0
  can0  122   [7]  FF FE 08 93 E9 32 00
  can0  0C1   [5]  03 02 24 00 D6
  can0  121   [8]  00 01 12 4E 16 11 0C D0
  can0  122   [7]  FF FE 08 93 E9 32 00
  can0  0C1   [5]  04 02 24 00 D5
  can0  0D9   [4]  7D 7C 00 18
  can0  121   [8]  00 01 12 4E 16 11 0C D0
  can0  122   [7]  FF FE 08 93 E9 32 00
  can0  0C1   [5]  05 02 24 00 D4
  can0  121   [8]  00 01 12 4E 16 11 0C D0
  can0  122   [7]  FF FE 08 93 E9 32 00
  can0  0C1   [5]  06 02 24 00 D3
  can0  121   [8]  00 01 12 4E 16 11 0C D0
  can0  122   [7]  FF FE 08 A3 E9 32 00
  can0  0C1   [5]  07 02 24 00 D2
  can0  121   [8]  00 01 12 4E 16 11 0C D0
  can0  122   [7]  FF FE 08 93 E9 32 00
  can0  0C1   [5]  08 02 24 00 D1
  can0  121   [8]  00 01 12 4E 16 11 0C D0
  can0  122   [7]  FF FE 08 C3 E9 32 00
  can0  0C1   [5]  09 02 24 00 D0
  can0  121   [8]  00 01 12 4E 16 11 0C D0
  can0  122   [7]  FF FE 08 C3 E9 32 00
  can0  0C1   [5]  0A 02 24 00 CF
  can0  121   [8]  00 01 12 4E 16 11 0C D0
  can0  122   [7]  FF FE 08 93 E9 32 00
  can0  0C1   [5]  0B 02 24 00 CE
  can0  121   [8]  00 01 12 4E 16 11 0C D0
  can0  122   [7]  FF FE 08 E3 E9 32 00
  can0  0C1   [5]  0C 02 24 00 CD
  can0  121   [8]  00 01 12 4E 16 11 0C D0
  can0  122   [7]  FF FE 09 23 E9 32 00
  can0  0C1   [5]  0D 02 24 00 CC
  can0  121   [8]  00 01 12 4E 16 11 0C D0
  can0  122   [7]  FF FE 09 13 E9 32 00
  can0  0C1   [5]  0E 02 24 00 CB
  can0  0D9   [4]  7D 7C 00 18
  can0  121   [8]  00 01 12 4E 16 11 0C D0
  can0  122   [7]  FF FE 09 13 E9 32 00
  can0  121   [8]  00 01 12 4E 16 11 0C D0
  can0  0C1   [5]  0F 02 24 00 CA
  can0  122   [7]  FF FE 08 93 E9 32 00
  can0  0C1   [5]  10 02 24 00 C9
  can0  121   [8]  00 01 12 4E 16 11 0C D0
  can0  122   [7]  FF FE 08 93 E9 32 00
  can0  121   [8]  00 01 12 4E 16 11 0C D0
  can0  0C1   [5]  11 02 24 00 C8
  can0  122   [7]  FF FE 09 03 E9 32 00
  can0  0C1   [5]  12 02 24 00 C7
  can0  121   [8]  00 01 12 4E 16 11 0C D0
  can0  122   [7]  FF FE 08 B3 E9 32 00
  can0  0C1   [5]  13 02 24 00 C6
  can0  121   [8]  00 01 12 4E 16 11 0C D0
  can0  122   [7]  FF FE 08 93 E9 32 00
  can0  0C1   [5]  14 02 24 00 C5
  can0  121   [8]  00 01 12 4E 16 11 0C D0
  can0  122   [7]  FF FE 08 93 E9 32 00
  can0  0C1   [5]  15 02 24 00 C4
  can0  121   [8]  00 01 12 4E 16 11 0C D0
  can0  122   [7]  FF FE 08 93 E9 32 00
  can0  0C1   [5]  16 02 24 00 C3
  can0  121   [8]  00 01 12 4E 16 11 0C D0
  can0  122   [7]  FF FE 08 93 E9 32 00
  can0  0C1   [5]  17 02 24 00 C2
  can0  121   [8]  00 01 12 4E 16 11 0C D0
  can0  122   [7]  FF FE 08 C3 E9 32 00
  can0  0C1   [5]  18 02 24 00 C1
  can0  0D9   [4]  7D 7C 00 18
  can0  121   [8]  00 01 12 4E 16 11 0C D0
  can0  122   [7]  FF FE 09 03 E9 32 00
  can0  0C1   [5]  19 02 24 00 C0
  can0  121   [8]  00 01 12 4E 16 11 0C D0
  can0  122   [7]  FF FE 08 C3 E9 32 00
  can0  0C1   [5]  1A 02 24 00 BF
  can0  121   [8]  00 01 12 4E 16 11 0C D0
  can0  122   [7]  FF FE 08 E3 E9 32 00
  can0  0C1   [5]  1B 02 24 00 BE
  can0  121   [8]  00 01 12 4E 16 11 0C D0
  can0  122   [7]  FF FE 08 93 E9 32 00
  can0  0C1   [5]  1C 02 24 00 BD
  can0  121   [8]  00 01 12 4E 16 11 0C D0
  can0  122   [7]  FF FE 08 93 E9 32 00
  can0  0C1   [5]  1D 02 24 00 BC
  can0  121   [8]  00 01 12 4E 16 11 0C D0
  can0  122   [7]  FF FE 08 93 E9 32 00
  can0  0C1   [5]  1E 02 24 00 BB
  can0  121   [8]  00 01 12 4E 16 11 0C D0
  can0  122   [7]  FF FE 08 93 E9 32 00
  can0  0C1   [5]  1F 02 24 00 BA
  can0  121   [8]  00 01 12 4E 16 11 0C D0
  can0  122   [7]  FF FE 08 93 E9 32 00
  can0  0C1   [5]  20 02 24 00 B9
  can0  121   [8]  00 01 12 4E 16 11 0C D0
  can0  122   [7]  FF FE 08 93 E9 32 00
  can0  0C1   [5]  21 02 24 00 B8
  can0  121   [8]  00 01 12 4E 16 11 0C D0
  can0  122   [7]  FF FE 08 B3 E9 32 00
  can0  0C1   [5]  22 02 24 00 B7
  can0  0D9   [4]  7D 7C 00 18
  can0  121   [8]  00 01 12 4E 16 11 0C D0
  can0  122   [7]  FF FE 08 C3 E9 32 00
  can0  0C1   [5]  23 02 24 00 B6
  can0  121   [8]  00 01 12 4E 16 11 0C D0
  can0  122   [7]  FF FE 08 A3 E9 32 00
  can0  0C1   [5]  24 02 24 00 B5
  can0  121   [8]  00 01 12 4E 16 11 0C D0
  can0  122   [7]  FF FE 08 93 E9 32 00
  can0  0C1   [5]  25 02 24 00 B4
  can0  121   [8]  00 01 12 4E 16 11 0C D0
  can0  122   [7]  FF FE 08 93 E9 32 00
  can0  0C1   [5]  26 02 24 00 B3
  can0  121   [8]  00 01 12 4E 16 11 0C D0
  can0  122   [7]  FF FE 08 E3 E9 32 00
  can0  0C1   [5]  27 02 24 00 B2
  can0  121   [8]  00 01 12 4E 16 11 0C D0
  can0  122   [7]  FF FE 08 C3 E9 32 00
  can0  0C1   [5]  28 02 24 00 B1
  can0  121   [8]  00 01 12 4E 16 11 0C D0
  can0  122   [7]  FF FE 08 93 E9 32 00
  can0  0C1   [5]  29 02 24 00 B0
  can0  121   [8]  00 01 12 4E 16 11 0C D0
  can0  122   [7]  FF FE 08 93 E9 32 00
  can0  0C1   [5]  2A 02 24 00 AF
  can0  121   [8]  00 01 12 4E 16 11 0C D0
  can0  122   [7]  FF FE 08 93 E9 32 00
  can0  121   [8]  00 01 12 4E 16 11 0C D0
  can0  0C1   [5]  2B 02 24 00 AE
  can0  122   [7]  FF FE 08 93 E9 32 00
  can0  0C1   [5]  2C 02 24 00 AD
  can0  7D3   [4]  0C 73 5A 00
  can0  0D9   [4]  7D 7C 00 18
  can0  121   [8]  00 01 12 4E 16 11 0C D0
  can0  122   [7]  FF FE 08 C3 E9 32 00
  can0  121   [8]  00 01 12 4E 16 11 0C D0
  can0  0C1   [5]  2D 02 24 00 AC
  can0  122   [7]  FF FE 08 93 E9 32 00
  can0  0C1   [5]  2E 02 24 00 AB
  can0  121   [8]  00 01 12 4E 16 11 0C D0
  can0  122   [7]  FF FE 08 F3 E9 32 00
  can0  121   [8]  00 01 12 4E 16 11 0C D0
  can0  0C1   [5]  2F 02 24 00 AA
  can0  122   [7]  FF FE 08 C3 E9 32 00
  can0  0C1   [5]  30 02 24 00 A9
  can0  121   [8]  00 01 12 4E 16 11 0C D0
  can0  122   [7]  FF FE 08 93 E9 32 00
  can0  0C1   [5]  31 02 24 00 A8
  can0  121   [8]  00 01 12 4E 16 11 0C D0
  can0  122   [7]  FF FE 08 93 E9 32 00
  can0  0C1   [5]  32 02 24 00 A7
  can0  121   [8]  00 01 12 4E 16 11 0C D0
  can0  122   [7]  FF FE 08 93 E9 32 00
  can0  0C1   [5]  33 02 24 00 A6
  can0  121   [8]  00 01 12 4E 16 11 0C D0
  can0  122   [7]  FF FE 08 93 E9 32 00
  can0  0C1   [5]  34 02 24 00 A5
  can0  121   [8]  00 01 12 4E 16 11 0C D0
  can0  122   [7]  FF FE 08 93 E9 32 00
  can0  0C1   [5]  35 02 24 00 A4
  can0  121   [8]  00 01 12 4E 16 11 0C D0
  can0  122   [7]  FF FE 08 93 E9 32 00
  can0  0C1   [5]  36 02 24 00 A3
  can0  0D9   [4]  7D 7C 00 18
  can0  121   [8]  00 01 12 4E 16 11 0C D0
  can0  122   [7]  FF FE 08 93 E9 32 00
  can0  0C1   [5]  37 02 24 00 A2
  can0  121   [8]  00 01 12 4E 16 11 0C D0
  can0  122   [7]  FF FE 08 93 E9 32 00
  can0  0C1   [5]  38 02 24 00 A1
  can0  121   [8]  00 01 12 4E 16 11 0C D0
  can0  122   [7]  FF FE 08 C3 E9 32 00
  can0  0C1   [5]  39 02 24 00 A0
  can0  121   [8]  00 01 12 4E 16 11 0C D0
  can0  122   [7]  FF FE 08 93 E9 32 00
  can0  0C1   [5]  3A 02 24 00 9F
  can0  121   [8]  00 01 12 4E 16 11 0C D0
  can0  122   [7]  FF FE 08 C3 E9 32 00
  can0  0C1   [5]  3B 02 24 00 9E
  can0  121   [8]  00 01 12 4E 16 11 0C D0
  can0  122   [7]  FF FE 08 B3 E9 32 00
  can0  0C1   [5]  3C 02 24 00 9D
  can0  121   [8]  00 01 12 4E 16 11 0C D0
  can0  122   [7]  FF FE 08 B3 E9 32 00
  can0  0C1   [5]  3D 02 24 00 9C
  can0  121   [8]  00 01 12 4E 16 11 0C D0
  can0  122   [7]  FF FE 08 93 E9 32 00
  can0  0C1   [5]  3E 02 24 00 9B
  can0  121   [8]  00 01 12 4E 16 11 0C D0
  can0  122   [7]  FF FE 08 93 E9 32 00
  can0  0C1   [5]  3F 02 24 00 9A
  can0  121   [8]  00 01 12 4E 16 11 0C D0
  can0  122   [7]  FF FE 08 B3 E9 32 00
  can0  0C1   [5]  40 02 24 00 99
  can0  0D9   [4]  7D 7C 00 18
  can0  121   [8]  00 01 12 4E 16 11 0C D0
  can0  122   [7]  FF FE 08 C3 E9 32 00
  can0  0C1   [5]  41 02 24 00 98
  can0  121   [8]  00 01 12 4E 16 11 0C D0
  can0  122   [7]  FF FE 08 93 E9 32 00
  can0  0C1   [5]  42 02 24 00 97
  can0  121   [8]  00 01 12 4E 16 11 0C D0
  can0  122   [7]  FF FE 08 93 E9 32 00
  can0  0C1   [5]  43 02 24 00 96
  can0  121   [8]  00 01 12 4E 16 11 0C D0
  can0  122   [7]  FF FE 08 93 E9 32 00
  can0  0C1   [5]  44 02 24 00 95
  can0  121   [8]  00 01 12 4E 16 11 0C D0
  can0  122   [7]  FF FE 08 93 E9 32 00
  can0  0C1   [5]  45 02 24 00 94
  can0  121   [8]  00 01 12 4E 16 11 0C D0
  can0  122   [7]  FF FE 08 93 E9 32 00
  can0  0C1   [5]  46 02 24 00 93
  can0  121   [8]  00 01 12 4E 16 11 0C D0
  can0  122   [7]  FF FE 08 A3 E9 32 00
  can0  0C1   [5]  47 02 24 00 92
  can0  121   [8]  00 01 12 4E 16 11 0C D0
  can0  122   [7]  FF FE 08 93 E9 32 00
  can0  0C1   [5]  48 02 24 00 91
  can0  121   [8]  00 01 12 4E 16 11 0C D0
  can0  122   [7]  FF FE 09 03 E9 32 00
  can0  0C1   [5]  49 02 24 00 90
  can0  121   [8]  00 01 12 4E 16 11 0C D0
  can0  122   [7]  FF FE 08 93 E9 32 00
  can0  0C1   [5]  4A 02 24 00 8F
  can0  0D9   [4]  7C 7C 00 18
  can0  121   [8]  00 01 12 4E 16 11 0C D0
  can0  122   [7]  FF FE 08 93 E9 32 00
  can0  0C1   [5]  4B 02 24 00 8E
  can0  121   [8]  00 01 12 4E 16 11 0C D0
  can0  122   [7]  FF FE 08 93 E9 32 00
  can0  0C1   [5]  4C 02 24 00 8D
  can0  121   [8]  00 01 12 4E 16 11 0C D0
  can0  122   [7]  FF FE 08 93 E9 32 00
  can0  0C1   [5]  4D 02 24 00 8C
  can0  121   [8]  00 01 12 4E 16 11 0C D0
  can0  122   [7]  FF FE 08 93 E9 32 00
  can0  0C1   [5]  4E 02 24 00 8B
  can0  121   [8]  00 01 12 4E 16 11 0C D0
  can0  122   [7]  FF FE 08 93 E9 32 00
  can0  0C1   [5]  4F 02 24 00 8A
  can0  121   [8]  00 01 12 4E 16 11 0C D0
  can0  122   [7]  FF FE 08 93 E9 32 00
  can0  0C1   [5]  50 02 24 00 89
  can0  121   [8]  00 01 12 4E 16 11 0C D0
  can0  122   [7]  FF FE 08 93 E9 32 00
  can0  0C1   [5]  51 02 24 00 88
  can0  121   [8]  00 01 12 4E 16 11 0C D0
  can0  122   [7]  FF FE 08 93 E9 32 00
  can0  0C1   [5]  52 02 24 00 87
  can0  121   [8]  00 01 12 4E 16 11 0C D0
  can0  122   [7]  FF FE 08 93 E9 32 00
  can0  0C1   [5]  53 02 24 00 86
  can0  121   [8]  00 01 12 4E 16 11 0C D0
  can0  122   [7]  FF FE 08 A3 E9 32 00
  can0  0C1   [5]  54 02 24 00 85
  can0  0D9   [4]  7D 7C 00 18
  can0  121   [8]  00 01 12 4E 16 11 0C D0
  can0  122   [7]  FF FE 08 93 E9 32 00
  can0  0C1   [5]  55 02 24 00 84
  can0  121   [8]  00 01 12 4E 16 11 0C D0
  can0  122   [7]  FF FE 08 A3 E9 32 00
  can0  0C1   [5]  56 02 24 00 83
  can0  121   [8]  00 01 12 4E 16 11 0C D0
  can0  122   [7]  FF FE 08 93 E9 32 00
  can0  0C1   [5]  57 02 24 00 82
  can0  121   [8]  00 01 12 4E 16 11 0C D0
  can0  122   [7]  FF FE 08 F3 E9 32 00
  can0  0C1   [5]  58 02 24 00 81
  can0  121   [8]  00 01 12 4E 16 11 0C D0
  can0  122   [7]  FF FE 08 F3 E9 32 00
  can0  0C1   [5]  59 02 24 00 80
  can0  121   [8]  00 01 12 4E 16 11 0C D0
  can0  122   [7]  FF FE 08 B3 E9 32 00
  can0  0C1   [5]  5A 02 24 00 7F
  can0  121   [8]  00 01 12 4E 16 11 0C D0
  can0  122   [7]  FF FE 08 93 E9 32 00
  can0  0C1   [5]  5B 02 24 00 7E
  can0  121   [8]  00 01 12 4E 16 11 0C D0
  can0  122   [7]  FF FE 08 93 E9 32 00
  can0  0C1   [5]  5C 02 24 00 7D
  can0  121   [8]  00 01 12 4E 16 11 0C D0
  can0  122   [7]  FF FE 08 93 E9 32 00
  can0  0C1   [5]  5D 02 24 00 7C
  can0  121   [8]  00 01 12 4E 16 11 0C D0
  can0  122   [7]  FF FE 08 93 E9 32 00
  can0  0C1   [5]  5E 02 24 00 7B
  can0  0D9   [4]  7D 7C 00 18
  can0  121   [8]  00 01 12 4E 16 11 0C D0
  can0  122   [7]  FF FE 08 93 E9 32 00
  can0  0C1   [5]  5F 02 24 00 7A
  can0  121   [8]  00 01 12 4E 16 11 0C D0
  can0  122   [7]  FF FE 08 B3 E9 32 00
  can0  0C1   [5]  60 02 24 00 79
  can0  121   [8]  00 01 12 4E 16 11 0C D0
  can0  122   [7]  FF FE 08 93 E9 32 00
  can0  0C1   [5]  61 02 24 00 78
  can0  121   [8]  00 01 12 4E 16 11 0C D0
  can0  122   [7]  FF FE 08 93 E9 32 00
  can0  0C1   [5]  62 02 24 00 77
  can0  121   [8]  00 01 12 4E 16 11 0C D0
  can0  122   [7]  FF FE 08 93 E9 32 00
  can0  0C1   [5]  63 02 24 00 76
  can0  121   [8]  00 01 12 4E 16 11 0C D0
  can0  122   [7]  FF FE 08 93 E9 32 00
  can0  0C1   [5]  64 02 24 00 75
  can0  121   [8]  00 01 12 4E 16 11 0C D0
  can0  122   [7]  FF FE 08 93 E9 32 00
  can0  0C1   [5]  65 02 24 00 74
  can0  121   [8]  00 01 12 4E 16 11 0C D0
  can0  122   [7]  FF FE 08 A3 E9 32 00
  can0  121   [8]  00 01 12 4E 16 11 0C D0
  can0  0C1   [5]  66 02 24 00 73
  can0  122   [7]  FF FE 08 93 E9 32 00
  can0  0C1   [5]  67 02 24 00 72
  can0  121   [8]  00 01 12 4E 16 11 0C D0
  can0  122   [7]  FF FE 08 C3 E9 32 00
  can0  0C1   [5]  68 02 24 00 71
  can0  0D9   [4]  7D 7C 00 18
  can0  121   [8]  00 01 12 4E 16 11 0C D0
  can0  122   [7]  FF FE 08 93 E9 32 00
  can0  0C1   [5]  69 02 24 00 70
  can0  121   [8]  00 01 12 4E 16 11 0C D0
  can0  122   [7]  FF FE 08 93 E9 32 00
  can0  0C1   [5]  6A 02 24 00 6F
  can0  121   [8]  00 01 12 4E 16 11 0C D0
  can0  122   [7]  FF FE 08 93 E9 32 00
  can0  0C1   [5]  6B 02 24 00 6E
  can0  121   [8]  00 01 12 4E 16 11 0C D0
  can0  122   [7]  FF FE 08 93 E9 32 00
  can0  121   [8]  00 01 12 4E 16 11 0C D0
  can0  0C1   [5]  6C 02 24 00 6D
  can0  122   [7]  FF FE 08 93 E9 32 00
  can0  0C1   [5]  6D 02 24 00 6C
  can0  121   [8]  00 01 12 4E 16 11 0C D0
  can0  122   [7]  FF FE 08 93 E9 32 00
  can0  0C1   [5]  6E 02 24 00 6B
  can0  121   [8]  00 01 12 4E 16 11 0C D0
  can0  122   [7]  FF FE 08 C3 E9 32 00
  can0  0C1   [5]  6F 02 24 00 6A
  can0  121   [8]  00 01 12 4E 16 11 0C D0
  can0  122   [7]  FF FE 08 93 E9 32 00
  can0  0C1   [5]  70 02 24 00 69
  can0  121   [8]  00 01 12 4E 16 11 0C D0
  can0  122   [7]  FF FE 08 93 E9 32 00
  can0  121   [8]  00 01 12 4E 16 11 0C D0
  can0  0C1   [5]  71 02 24 00 68
  can0  122   [7]  FF FE 08 93 E9 32 00
  can0  0C1   [5]  72 02 24 00 67
  can0  0D9   [4]  7D 7C 00 18
  can0  121   [8]  00 01 12 4E 16 11 0C D0
  can0  122   [7]  FF FE 08 93 E9 32 00
  can0  0C1   [5]  73 02 24 00 66
  can0  121   [8]  00 01 12 4E 16 11 0C D0
  can0  122   [7]  FF FE 08 93 E9 32 00
  can0  0C1   [5]  74 02 24 00 65
  can0  121   [8]  00 01 12 4E 16 11 0C D0
  can0  122   [7]  FF FE 08 93 E9 32 00
  can0  0C1   [5]  75 02 24 00 64
  can0  121   [8]  00 01 12 4E 16 11 0C D0
  can0  122   [7]  FF FE 08 93 E9 32 00
  can0  0C1   [5]  76 02 24 00 63
  can0  121   [8]  00 01 12 4E 16 11 0C D0
  can0  122   [7]  FF FE 08 93 E9 32 00
  can0  0C1   [5]  77 02 24 00 62
  can0  121   [8]  00 01 12 4E 16 11 0C D0
  can0  122   [7]  FF FE 08 93 E9 32 00
  can0  0C1   [5]  78 02 24 00 61
  can0  121   [8]  00 01 12 4E 16 11 0C D0
  can0  122   [7]  FF FE 08 93 E9 32 00
  can0  0C1   [5]  79 02 24 00 60
  can0  121   [8]  00 01 12 4E 16 11 0C D0
  can0  122   [7]  FF FE 09 03 E9 32 00
  can0  121   [8]  00 01 12 4E 16 11 0C D0
  can0  0C1   [5]  7A 02 24 00 5F
  can0  122   [7]  FF FE 08 93 E9 32 00
  can0  0C1   [5]  7B 02 24 00 5E
  can0  121   [8]  00 01 12 4E 16 11 0C D0
  can0  122   [7]  FF FE 08 93 E9 32 00
  can0  0C1   [5]  7C 02 24 00 5D
  can0  0D9   [4]  7D 7C 00 18
  can0  121   [8]  00 01 12 4E 16 11 0C D0
  can0  122   [7]  FF FE 08 93 E9 32 00
  can0  0C1   [5]  7D 02 24 00 5C
  can0  121   [8]  00 01 12 4E 16 11 0C D0
  can0  122   [7]  FF FE 08 93 E9 32 00
  can0  121   [8]  00 01 12 4E 16 11 0C D0
  can0  0C1   [5]  7E 02 24 00 5B
  can0  122   [7]  FF FE 08 93 E9 32 00
  can0  0C1   [5]  7F 02 24 00 5A
  can0  121   [8]  00 01 12 4E 16 11 0C D0
  can0  122   [7]  FF FE 08 93 E9 32 00
  can0  0C1   [5]  80 02 24 00 59
  can0  121   [8]  00 01 12 4E 16 11 0C D0
  can0  122   [7]  FF FE 08 93 E9 32 00
  can0  121   [8]  00 01 12 4E 16 11 0C D0
  can0  0C1   [5]  81 02 24 00 58
  can0  122   [7]  FF FE 08 93 E9 32 00
  can0  0C1   [5]  82 02 24 00 57
  can0  121   [8]  00 01 12 4E 16 11 0C D0
  can0  122   [7]  FF FE 08 93 E9 32 00
  can0  0C1   [5]  83 02 24 00 56
  can0  121   [8]  00 01 12 4E 16 11 0C D0
  can0  122   [7]  FF FE 08 93 E9 32 00
  can0  0C1   [5]  84 02 24 00 55
  can0  121   [8]  00 01 12 4E 16 11 0C D0
  can0  122   [7]  FF FE 08 93 E9 32 00
  can0  0C1   [5]  85 02 24 00 54
  can0  121   [8]  00 01 12 4E 16 11 0C D0
  can0  122   [7]  FF FE 08 93 E9 32 00
  can0  121   [8]  00 01 12 4E 16 11 0C D0
  can0  0C1   [5]  86 02 24 00 53
  can0  0D9   [4]  7D 7C 00 18
  can0  122   [7]  FF FE 09 03 E9 32 00
  can0  0C1   [5]  87 02 24 00 52
  can0  121   [8]  00 01 12 4E 16 11 0C D0
  can0  122   [7]  FF FE 08 93 E9 32 00
  can0  0C1   [5]  88 02 24 00 51
  can0  121   [8]  00 01 12 4E 16 11 0C D0
  can0  122   [7]  FF FE 08 93 E9 32 00
  can0  0C1   [5]  89 02 24 00 50
  can0  121   [8]  00 01 12 4E 16 11 0C D0
  can0  122   [7]  FF FE 08 93 E9 32 00
  can0  0C1   [5]  8A 02 24 00 4F
  can0  121   [8]  00 01 12 4E 16 11 0C D0
  can0  122   [7]  FF FE 08 93 E9 32 00
  can0  0C1   [5]  8B 02 24 00 4E
  can0  121   [8]  00 01 12 4E 16 11 0C D0
  can0  122   [7]  FF FE 08 93 E9 32 00
  can0  0C1   [5]  8C 02 24 00 4D
  can0  121   [8]  00 01 12 4E 16 11 0C D0
  can0  122   [7]  FF FE 08 93 E9 32 00
  can0  0C1   [5]  8D 02 24 00 4C
  can0  121   [8]  00 01 12 4E 16 11 0C D0
  can0  122   [7]  FF FE 08 93 E9 32 00
  can0  0C1   [5]  8E 02 24 00 4B
  can0  121   [8]  00 01 12 4E 16 11 0C D0
  can0  122   [7]  FF FE 08 93 E9 32 00
  can0  0C1   [5]  8F 02 24 00 4A
  can0  121   [8]  00 01 12 4E 16 11 0C D0
  can0  122   [7]  FF FE 08 93 E9 32 00
  can0  0C1   [5]  90 02 24 00 49
  can0  0D9   [4]  7D 7C 00 18
  can0  121   [8]  00 01 12 4E 16 11 0C D0
  can0  122   [7]  FF FE 08 93 E9 32 00
  can0  0C1   [5]  91 02 24 00 48
  can0  121   [8]  00 01 12 4E 16 11 0C D0
  can0  122   [7]  FF FE 08 93 E9 32 00
  can0  0C1   [5]  92 02 24 00 47
  can0  121   [8]  00 01 12 4E 16 11 0C D0
  can0  122   [7]  FF FE 08 93 E9 32 00
  can0  0C1   [5]  93 02 24 00 46
  can0  121   [8]  00 01 12 4E 16 11 0C D0
  can0  122   [7]  FF FE 08 F3 E9 32 00
  can0  0C1   [5]  94 02 24 00 45
  can0  121   [8]  00 01 12 4E 16 11 0C D0
  can0  122   [7]  FF FE 09 23 E9 32 00
  can0  0C1   [5]  95 02 24 00 44
  can0  121   [8]  00 01 12 4E 16 11 0C D0
  can0  122   [7]  FF FE 08 93 E9 32 00
  can0  0C1   [5]  96 02 24 00 43
  can0  121   [8]  00 01 12 4E 16 11 0C D0
  can0  122   [7]  FF FE 08 93 E9 32 00
  can0  0C1   [5]  97 02 24 00 42
  can0  121   [8]  00 01 12 4E 16 11 0C D0
  can0  122   [7]  FF FE 08 93 E9 32 00
  can0  0C1   [5]  98 02 24 00 41
  can0  121   [8]  00 01 12 4E 16 11 0C D0
  can0  122   [7]  FF FE 08 93 E9 32 00
  can0  121   [8]  00 01 12 4E 16 11 0C D0
  can0  0C1   [5]  99 02 24 00 40
  can0  122   [7]  FF FE 08 B3 E9 32 00
  can0  0C1   [5]  9A 02 24 00 3F
  can0  0D9   [4]  7D 7C 00 18
  can0  121   [8]  00 01 12 4E 16 11 0C D0
  can0  122   [7]  FF FE 08 93 E9 32 00
  can0  0C1   [5]  9B 02 24 00 3E
  can0  121   [8]  00 01 12 4E 16 11 0C D0
  can0  122   [7]  FF FE 08 93 E9 32 00
  can0  0C1   [5]  9C 02 24 00 3D
  can0  121   [8]  00 01 12 4E 16 11 0C D0
  can0  122   [7]  FF FE 08 93 E9 32 00
  can0  0C1   [5]  9D 02 24 00 3C
  can0  121   [8]  00 01 12 4E 16 11 0C D0
  can0  122   [7]  FF FE 08 A3 E9 32 00
  can0  121   [8]  00 01 12 4E 16 11 0C D0
  can0  0C1   [5]  9E 02 24 00 3B
  can0  122   [7]  FF FE 08 C3 E9 32 00
  can0  0C1   [5]  9F 02 24 00 3A
  can0  121   [8]  00 01 12 4E 16 11 0C D0
  can0  122   [7]  FF FE 08 A3 E9 32 00
  can0  0C1   [5]  A0 02 24 00 39
  can0  121   [8]  00 01 12 4E 16 11 0C D0
  can0  122   [7]  FF FE 08 93 E9 32 00
  can0  0C1   [5]  A1 02 24 00 38
  can0  121   [8]  00 01 12 4E 16 11 0C D0
  can0  122   [7]  FF FE 08 93 E9 32 00
  can0  0C1   [5]  A2 02 24 00 37
  can0  121   [8]  00 01 12 4E 16 11 0C D0
  can0  122   [7]  FF FE 08 93 E9 32 00
  can0  0C1   [5]  A3 02 24 00 36
  can0  121   [8]  00 01 12 4E 16 11 0C D0
  can0  122   [7]  FF FE 08 93 E9 32 00
  can0  121   [8]  00 01 12 4E 16 11 0C D0
  can0  0C1   [5]  A4 02 24 00 35
  can0  0D9   [4]  7D 7C 00 18
  can0  122   [7]  FF FE 08 93 E9 32 00
  can0  121   [8]  00 01 12 4E 16 11 0C D0
  can0  0C1   [5]  A5 02 24 00 34
  can0  122   [7]  FF FE 08 93 E9 32 00
  can0  0C1   [5]  A6 02 24 00 33
  can0  121   [8]  00 01 12 4E 16 11 0C D0
  can0  122   [7]  FF FE 08 E3 E9 32 00
  can0  0C1   [5]  A7 02 24 00 32
  can0  121   [8]  00 01 12 4E 16 11 0C D0
  can0  122   [7]  FF FE 08 E3 E9 32 00
  can0  0C1   [5]  A8 02 24 00 31
  can0  121   [8]  00 01 12 4E 16 11 0C D8
  can0  122   [7]  FF FE 08 93 E9 32 00
  can0  0C1   [5]  A9 02 24 00 30
  can0  121   [8]  00 01 12 4E 16 11 0C D0
  can0  122   [7]  FF FE 08 A3 E9 32 00
  can0  0C1   [5]  AA 02 24 00 2F
  can0  121   [8]  00 01 12 4E 16 11 0C D0
  can0  122   [7]  FF FE 08 93 E9 32 00
  can0  0C1   [5]  AB 02 24 00 2E
  can0  121   [8]  00 01 12 4E 16 11 0C D0
  can0  122   [7]  FF FE 08 93 E9 32 00
  can0  0C1   [5]  AC 02 24 00 2D
  can0  121   [8]  00 01 12 4E 16 11 0C D0
  can0  122   [7]  FF FE 08 93 E9 32 00
  can0  0C1   [5]  AD 02 24 00 2C
  can0  121   [8]  00 01 12 4E 16 11 0C D0
  can0  122   [7]  FF FE 08 93 E9 32 00
  can0  121   [8]  00 01 12 4E 16 11 0C D0
  can0  0C1   [5]  AE 02 24 00 2B
  can0  0D9   [4]  7D 7C 00 18
  can0  122   [7]  FF FE 08 93 E9 32 00
  can0  0C1   [5]  AF 02 24 00 2A
  can0  121   [8]  00 01 12 4E 16 11 0C D0
  can0  122   [7]  FF FE 08 93 E9 32 00
  can0  0C1   [5]  B0 02 24 00 29
  can0  121   [8]  00 01 12 4E 16 11 0C D0
  can0  122   [7]  FF FE 08 93 E9 32 00
  can0  0C1   [5]  B1 02 24 00 28
  can0  121   [8]  00 01 12 4E 16 11 0C D0
  can0  122   [7]  FF FE 08 B3 E9 32 00
  can0  0C1   [5]  B2 02 24 00 27
  can0  121   [8]  00 01 12 4E 16 11 0C D0
  can0  122   [7]  FF FE 08 93 E9 32 00
  can0  0C1   [5]  B3 02 24 00 26
  can0  121   [8]  00 01 12 4E 16 11 0C D0
  can0  122   [7]  FF FE 08 93 E9 32 00
  can0  0C1   [5]  B4 02 24 00 25
  can0  121   [8]  00 01 12 4E 16 11 0C D0
  can0  122   [7]  FF FE 08 93 E9 32 00
  can0  0C1   [5]  B5 02 24 00 24
  can0  121   [8]  00 01 12 4E 16 11 0C D0
  can0  122   [7]  FF FE 08 93 E9 32 00
  can0  0C1   [5]  B6 02 24 00 23
  can0  121   [8]  00 01 12 4E 16 11 0C D0
  can0  122   [7]  FF FE 08 93 E9 32 00
  can0  0C1   [5]  B7 02 24 00 22
  can0  121   [8]  00 01 12 4E 16 11 0C D0
  can0  122   [7]  FF FE 08 93 E9 32 00
  can0  0C1   [5]  B8 02 24 00 21
  can0  0D9   [4]  7D 7C 00 18
  can0  121   [8]  00 01 12 4E 16 11 0C D0
  can0  122   [7]  FF FE 08 93 E9 32 00
  can0  0C1   [5]  B9 02 24 00 20
  can0  121   [8]  00 01 12 4E 16 11 0C D0
  can0  122   [7]  FF FE 08 93 E9 32 00
  can0  0C1   [5]  BA 02 24 00 1F
  can0  121   [8]  00 01 12 4E 16 11 0C D0
  can0  122   [7]  FF FE 08 F3 E9 32 00
  can0  0C1   [5]  BB 02 24 00 1E
  can0  121   [8]  00 01 12 4E 16 11 0C D0
  can0  122   [7]  FF FE 08 93 E9 32 00
  can0  0C1   [5]  BC 02 24 00 1D
  can0  121   [8]  00 01 12 4E 16 11 0C D0
  can0  122   [7]  FF FE 08 93 E9 32 00
  can0  0C1   [5]  BD 02 24 00 1C
  can0  121   [8]  00 01 12 4E 16 11 0C D0
  can0  122   [7]  FF FE 09 A3 E9 32 00
  can0  0C1   [5]  BE 02 24 00 1B
  can0  121   [8]  00 01 12 4E 16 11 0C D0
  can0  122   [7]  FF FE 08 93 E9 32 00
  can0  0C1   [5]  BF 02 24 00 1A
  can0  121   [8]  00 01 12 4E 16 11 0C D0
  can0  122   [7]  FF FE 08 93 E9 32 00
  can0  0C1   [5]  C0 02 24 00 19
  can0  121   [8]  00 01 12 4E 16 11 0C D0
  can0  122   [7]  FF FE 08 93 E9 32 00
  can0  0C1   [5]  C1 02 24 00 18
  can0  121   [8]  00 01 12 4E 16 11 0C D0
  can0  122   [7]  FF FE 08 93 E9 32 00
  can0  0C1   [5]  C2 02 24 00 17
  can0  0D9   [4]  7D 7C 00 18
  can0  121   [8]  00 01 12 4E 16 11 0C D0
  can0  122   [7]  FF FE 08 93 E9 32 00
  can0  0C1   [5]  C3 02 24 00 16
  can0  121   [8]  00 01 12 4E 16 11 0C D0
  can0  122   [7]  FF FE 08 93 E9 32 00
  can0  0C1   [5]  C4 02 24 00 15
  can0  121   [8]  00 01 12 4E 16 11 0C D0
  can0  122   [7]  FF FE 08 93 E9 32 00
  can0  0C1   [5]  C5 02 24 00 14
  can0  121   [8]  00 01 12 4E 16 11 0C D0
  can0  122   [7]  FF FE 08 B3 E9 32 00
  can0  0C1   [5]  C6 02 24 00 13
  can0  121   [8]  00 01 12 4E 16 11 0C D0
  can0  122   [7]  FF FE 09 03 E9 32 00
  can0  0C1   [5]  C7 02 24 00 12
  can0  121   [8]  00 01 12 4E 16 11 0C D0
  can0  122   [7]  FF FE 08 E3 E9 32 00
  can0  0C1   [5]  C8 02 24 00 11
  can0  121   [8]  00 01 12 4E 16 11 0C D0
  can0  122   [7]  FF FE 08 93 E9 32 00
  can0  0C1   [5]  C9 02 24 00 10
  can0  121   [8]  00 01 12 4E 16 11 0C D0
  can0  122   [7]  FF FE 08 93 E9 32 00
  can0  121   [8]  00 01 12 4E 16 11 0C D0
  can0  0C1   [5]  CA 02 24 00 0F
  can0  122   [7]  FF FE 08 93 E9 32 00
  can0  0C1   [5]  CB 02 24 00 0E
  can0  121   [8]  00 01 12 4E 16 11 0C D0
  can0  122   [7]  FF FE 08 93 E9 32 00
  can0  0C1   [5]  CC 02 24 00 0D
  can0  0D9   [4]  7D 7C 00 18
  can0  121   [8]  00 01 12 4E 16 11 0C D0
  can0  122   [7]  FF FE 08 93 E9 32 00
  can0  0C1   [5]  CD 02 24 00 0C
  can0  121   [8]  00 01 12 4E 16 11 0C D0
  can0  122   [7]  FF FE 09 03 E9 32 00
  can0  121   [8]  00 01 12 4E 16 11 0C D0
  can0  0C1   [5]  CE 02 24 00 0B
  can0  122   [7]  FF FE 08 E3 E9 32 00
  can0  0C1   [5]  CF 02 24 00 0A
  can0  121   [8]  00 01 12 4E 16 11 0C D0
  can0  122   [7]  FF FE 08 A3 E9 32 00
  can0  0C1   [5]  D0 02 24 00 09
  can0  121   [8]  00 01 12 4E 16 11 0C D0
  can0  122   [7]  FF FE 08 93 E9 32 00
  can0  0C1   [5]  D1 02 24 00 08
  can0  121   [8]  00 01 12 4E 16 11 0C D0
  can0  122   [7]  FF FE 08 93 E9 32 00
  can0  121   [8]  00 01 12 4E 16 11 0C D0
  can0  0C1   [5]  D2 02 24 00 07
  can0  122   [7]  FF FE 08 93 E9 32 00
  can0  121   [8]  00 01 12 4E 16 11 0C D0
  can0  0C1   [5]  D3 02 24 00 06
  can0  122   [7]  FF FE 08 93 E9 32 00
  can0  0C1   [5]  D4 02 24 00 05
  can0  121   [8]  00 01 12 4E 16 11 0C D0
  can0  122   [7]  FF FE 08 93 E9 32 00
  can0  0C1   [5]  D5 02 24 00 04
  can0  121   [8]  00 01 12 4E 16 11 0C D0
  can0  122   [7]  FF FE 08 A3 E9 32 00
  can0  0C1   [5]  D6 02 24 00 03
  can0  0D9   [4]  7D 7C 00 18
  can0  121   [8]  00 01 12 4E 16 11 0C D0
  can0  122   [7]  FF FE 08 B3 E9 32 00
  can0  0C1   [5]  D7 02 24 00 02
  can0  121   [8]  00 01 12 4E 16 11 0C D0
  can0  122   [7]  FF FE 08 93 E9 32 00
  can0  0C1   [5]  D8 02 24 00 01
  can0  121   [8]  00 01 12 4E 16 11 0C D0
  can0  122   [7]  FF FE 08 93 E9 32 00
  can0  0C1   [5]  D9 02 24 00 00
  can0  121   [8]  00 01 12 4E 16 11 0C D0
  can0  122   [7]  FF FE 08 93 E9 32 00
  can0  0C1   [5]  DA 02 24 00 FF
  can0  121   [8]  00 01 12 4E 16 11 0C D0
  can0  122   [7]  FF FE 08 93 E9 32 00
  can0  0C1   [5]  DB 02 24 00 FE
  can0  121   [8]  00 01 12 4E 16 11 0C D0
  can0  122   [7]  FF FE 08 93 E9 32 00
  can0  0C1   [5]  DC 02 24 00 FD
  can0  121   [8]  00 01 12 4E 16 11 0C D0
  can0  122   [7]  FF FE 08 93 E9 32 00
  can0  0C1   [5]  DD 02 24 00 FC
  can0  121   [8]  00 01 12 4E 16 11 0C D0
  can0  122   [7]  FF FE 08 93 E9 32 00
  can0  0C1   [5]  DE 02 24 00 FB
  can0  121   [8]  00 01 12 4E 16 11 0C D0
  can0  122   [7]  FF FE 08 93 E9 32 00
  can0  0C1   [5]  DF 02 24 00 FA
  can0  121   [8]  00 01 12 4E 16 11 0C D0
  can0  122   [7]  FF FE 08 93 E9 32 00
  can0  0C1   [5]  E0 02 24 00 F9
  can0  0D9   [4]  7D 7C 00 18
  can0  121   [8]  00 01 12 4E 16 11 0C D0
  can0  122   [7]  FF FE 08 93 E9 32 00
  can0  0C1   [5]  E1 02 24 00 F8
  can0  121   [8]  00 01 12 4E 16 11 0C D0
  can0  122   [7]  FF FE 08 93 E9 32 00
  can0  0C1   [5]  E2 02 24 00 F7
  can0  121   [8]  00 01 12 4E 16 11 0C D0
  can0  122   [7]  FF FE 08 B3 E9 32 00
  can0  0C1   [5]  E3 02 24 00 F6
  can0  121   [8]  00 01 12 4E 16 11 0C D0
  can0  122   [7]  FF FE 08 B3 E9 32 00
  can0  0C1   [5]  E4 02 24 00 F5
  can0  121   [8]  00 01 12 4E 16 11 0C D0
  can0  122   [7]  FF FE 08 93 E9 32 00
  can0  0C1   [5]  E5 02 24 00 F4
  can0  121   [8]  00 01 12 4E 16 11 0C D0
  can0  122   [7]  FF FE 08 93 E9 32 00
  can0  0C1   [5]  E6 02 24 00 F3
  can0  121   [8]  00 01 12 4E 16 11 0C D0
  can0  122   [7]  FF FE 08 93 E9 32 00
  can0  0C1   [5]  E7 02 24 00 F2
  can0  121   [8]  00 01 12 4E 16 11 0C D0
  can0  122   [7]  FF FE 08 93 E9 32 00
  can0  0C1   [5]  E8 02 24 00 F1
  can0  121   [8]  00 01 12 4E 16 11 0C D0
  can0  122   [7]  FF FE 08 93 E9 32 00
  can0  0C1   [5]  E9 02 24 00 F0
  can0  121   [8]  00 01 12 4E 16 11 0C D0
  can0  122   [7]  FF FE 08 93 E9 32 00
  can0  0C1   [5]  EA 02 24 00 EF
  can0  0D9   [4]  7D 7C 00 18
  can0  121   [8]  00 01 12 4E 16 11 0C D0
  can0  122   [7]  FF FE 08 93 E9 32 00
  can0  0C1   [5]  EB 02 24 00 EE
  can0  121   [8]  00 01 12 4E 16 11 0C D0
  can0  122   [7]  FF FE 08 93 E9 32 00
  can0  0C1   [5]  EC 02 24 00 ED
  can0  121   [8]  00 01 12 4E 16 11 0C D0
  can0  122   [7]  FF FE 08 93 E9 32 00
  can0  0C1   [5]  ED 02 24 00 EC
  can0  121   [8]  00 01 12 4E 16 11 0C D0
  can0  122   [7]  FF FE 08 93 E9 32 00
  can0  0C1   [5]  EE 02 24 00 EB
  can0  121   [8]  00 01 12 4E 16 11 0C D0
  can0  122   [7]  FF FE 08 93 E9 32 00
  can0  0C1   [5]  EF 02 24 00 EA
  can0  121   [8]  00 01 12 4E 16 11 0C D0
  can0  122   [7]  FF FE 08 A3 E9 32 00
  can0  0C1   [5]  F0 02 24 00 E9
  can0  121   [8]  00 01 12 4E 16 11 0C D0
  can0  122   [7]  FF FE 09 13 E9 32 00
  can0  0C1   [5]  F1 02 24 00 E8
  can0  121   [8]  00 01 12 4E 16 11 0C D0
  can0  122   [7]  FF FE 09 13 E9 32 00
  can0  0C1   [5]  F2 02 24 00 E7
  can0  121   [8]  00 01 12 4E 16 11 0C D0
  can0  122   [7]  FF FE 08 93 E9 32 00
  can0  0C1   [5]  F3 02 24 00 E6
  can0  121   [8]  00 01 12 4E 16 11 0C D0
  can0  122   [7]  FF FE 08 93 E9 32 00
  can0  0C1   [5]  F4 02 24 00 E5
  can0  0D9   [4]  7C 7C 00 18
  can0  121   [8]  00 01 12 4E 16 11 0C D0
  can0  122   [7]  FF FE 08 C3 E9 32 00
  can0  0C1   [5]  F5 02 24 00 E4
  can0  121   [8]  00 01 12 4E 16 11 0C D0
  can0  122   [7]  FF FE 08 93 E9 32 00
  can0  0C1   [5]  F6 02 24 00 E3
  can0  121   [8]  00 01 12 4E 16 11 0C D0
  can0  122   [7]  FF FE 08 93 E9 32 00
  can0  0C1   [5]  F7 02 24 00 E2
  can0  121   [8]  00 01 12 4E 16 11 0C D0
  can0  122   [7]  FF FE 08 93 E9 32 00
  can0  0C1   [5]  F8 02 24 00 E1
  can0  121   [8]  00 01 12 4E 16 11 0C D0
  can0  122   [7]  FF FE 08 93 E9 32 00
  can0  0C1   [5]  F9 02 24 00 E0
  can0  121   [8]  00 01 12 4E 16 11 0C D0
  can0  122   [7]  FF FE 08 93 E9 32 00
  can0  0C1   [5]  FA 02 24 00 DF
  can0  121   [8]  00 01 12 4E 16 11 0C D0
  can0  122   [7]  FF FE 08 93 E9 32 00
  can0  0C1   [5]  FB 02 24 00 DE
  can0  121   [8]  00 01 12 4E 16 11 0C D0
  can0  122   [7]  FF FE 08 93 E9 32 00
  can0  121   [8]  00 01 12 4E 16 11 0C D0
  can0  0C1   [5]  FC 02 24 00 DD
  can0  122   [7]  FF FE 08 93 E9 32 00
  can0  0C1   [5]  FD 02 24 00 DC
  can0  121   [8]  00 01 12 4E 16 11 0C D0
  can0  122   [7]  FF FE 08 93 E9 32 00
  can0  0C1   [5]  FE 02 24 00 DB
  can0  0D9   [4]  7D 7C 00 18
  can0  121   [8]  00 01 12 4E 16 11 0C D0
  can0  122   [7]  FF FE 08 93 E9 32 00
  can0  0C1   [5]  FF 02 24 00 DA
  can0  121   [8]  00 01 12 4E 16 11 0C D0
  can0  122   [7]  FF FE 08 93 E9 32 00
  can0  121   [8]  00 01 12 4E 16 11 0C D0
  can0  0C1   [5]  00 02 24 00 D9
  can0  122   [7]  FF FE 08 93 E9 32 00
  can0  0C1   [5]  01 02 24 00 D8
  can0  121   [8]  00 01 12 4E 16 11 0C D0
  can0  122   [7]  FF FE 08 93 E9 32 00
  can0  0C1   [5]  02 02 24 00 D7
  can0  121   [8]  00 01 12 4E 16 11 0C D0
  can0  122   [7]  FF FE 08 93 E9 32 00
  can0  121   [8]  00 01 12 4E 16 11 0C D0
  can0  0C1   [5]  03 02 24 00 D6
  can0  122   [7]  FF FE 08 93 E9 32 00
  can0  0C1   [5]  04 02 24 00 D5
  can0  121   [8]  00 01 12 4E 16 11 0C D0
  can0  122   [7]  FF FE 08 93 E9 32 00
  can0  0C1   [5]  05 02 24 00 D4
  can0  121   [8]  00 01 12 4E 16 11 0C D0
  can0  122   [7]  FF FE 08 93 E9 32 00
  can0  0C1   [5]  06 02 24 00 D3
  can0  121   [8]  00 01 12 4E 16 11 0C D0
  can0  122   [7]  FF FE 08 93 E9 32 00
  can0  0C1   [5]  07 02 24 00 D2
  can0  121   [8]  00 01 12 4E 16 11 0C D0
  can0  122   [7]  FF FE 08 93 E9 32 00
  can0  0C1   [5]  08 02 24 00 D1
  can0  0D9   [4]  7D 7C 00 18
  can0  121   [8]  00 01 12 4E 16 11 0C D0
  can0  122   [7]  FF FE 08 93 E9 32 00
  can0  0C1   [5]  09 02 24 00 D0
  can0  121   [8]  00 01 12 4E 16 11 0C D0
  can0  122   [7]  FF FE 08 93 E9 32 00
  can0  0C1   [5]  0A 02 24 00 CF
  can0  121   [8]  00 01 12 4E 16 11 0C D0
  can0  122   [7]  FF FE 08 93 E9 32 00
  can0  0C1   [5]  0B 02 24 00 CE
  can0  121   [8]  00 01 12 4E 16 11 0C D0
  can0  122   [7]  FF FE 08 93 E9 32 00
  can0  0C1   [5]  0C 02 24 00 CD
  can0  121   [8]  00 01 12 4E 16 11 0C D0
  can0  122   [7]  FF FE 08 93 E9 32 00
  can0  0C1   [5]  0D 02 24 00 CC
  can0  121   [8]  00 01 12 4E 16 11 0C D0
  can0  122   [7]  FF FE 08 93 E9 32 00
  can0  0C1   [5]  0E 02 24 00 CB
  can0  121   [8]  00 01 12 4E 16 11 0C D0
  can0  122   [7]  FF FE 08 93 E9 32 00
  can0  0C1   [5]  0F 02 24 00 CA
  can0  121   [8]  00 01 12 4E 16 11 0C D0
  can0  122   [7]  FF FE 08 93 E9 32 00
  can0  0C1   [5]  10 02 24 00 C9
  can0  121   [8]  00 01 12 4E 16 11 0C D0
  can0  122   [7]  FF FE 08 93 E9 32 00
  can0  0C1   [5]  11 02 24 00 C8
  can0  121   [8]  00 01 12 4E 16 11 0C D0
  can0  122   [7]  FF FE 08 93 E9 32 00
  can0  0C1   [5]  12 02 24 00 C7
  can0  0D9   [4]  7D 7C 00 18
  can0  121   [8]  00 01 12 4E 16 11 0C D0
  can0  122   [7]  FF FE 08 93 E9 32 00
  can0  0C1   [5]  13 02 24 00 C6
  can0  121   [8]  00 01 12 4E 16 11 0C D0
  can0  122   [7]  FF FE 08 B3 E9 32 00
  can0  0C1   [5]  14 02 24 00 C5
  can0  121   [8]  00 01 12 4E 16 11 0C D0
  can0  122   [7]  FF FE 08 93 E9 32 00
  can0  0C1   [5]  15 02 24 00 C4
  can0  121   [8]  00 01 12 4E 16 11 0C D0
  can0  122   [7]  FF FE 08 93 E9 32 00
  can0  0C1   [5]  16 02 24 00 C3
  can0  121   [8]  00 01 12 4E 16 11 0C D0
  can0  122   [7]  FF FE 08 93 E9 32 00
  can0  0C1   [5]  17 02 24 00 C2
  can0  121   [8]  00 01 12 4E 16 11 0C D0
  can0  122   [7]  FF FE 08 93 E9 32 00
  can0  0C1   [5]  18 02 24 00 C1
  can0  121   [8]  00 01 12 4E 16 11 0C D0
  can0  122   [7]  FF FE 08 E3 E9 32 00
  can0  0C1   [5]  19 02 24 00 C0
  can0  121   [8]  00 01 12 4E 16 11 0C D0
  can0  122   [7]  FF FE 08 93 E9 32 00
  can0  0C1   [5]  1A 02 24 00 BF
  can0  121   [8]  00 01 12 4E 16 11 0C D0
  can0  122   [7]  FF FE 08 93 E9 32 00
  can0  0C1   [5]  1B 02 24 00 BE
  can0  121   [8]  00 01 12 4E 16 11 0C D0
  can0  122   [7]  FF FE 08 93 E9 32 00
  can0  0C1   [5]  1C 02 24 00 BD
  can0  0D9   [4]  7D 7C 00 18
  can0  121   [8]  00 01 12 4E 16 11 0C D0
  can0  122   [7]  FF FE 08 93 E9 32 00
  can0  0C1   [5]  1D 02 24 00 BC
  can0  121   [8]  00 01 12 4E 16 11 0C D0
  can0  122   [7]  FF FE 08 A3 E9 32 00
  can0  0C1   [5]  1E 02 24 00 BB
  can0  121   [8]  00 01 12 4E 16 11 0C D0
  can0  122   [7]  FF FE 08 93 E9 32 00
  can0  0C1   [5]  1F 02 24 00 BA
  can0  121   [8]  00 01 12 4E 16 11 0C D0
  can0  122   [7]  FF FE 08 93 E9 32 00
  can0  0C1   [5]  20 02 24 00 B9
  can0  121   [8]  00 01 12 4E 16 11 0C D0
  can0  122   [7]  FF FE 08 93 E9 32 00
  can0  0C1   [5]  21 02 24 00 B8
  can0  121   [8]  00 01 12 4E 16 11 0C D0
  can0  122   [7]  FF FE 08 B3 E9 32 00
  can0  0C1   [5]  22 02 24 00 B7
  can0  121   [8]  00 01 12 4E 16 11 0C D0
  can0  122   [7]  FF FE 08 93 E9 32 00
  can0  0C1   [5]  23 02 24 00 B6
  can0  121   [8]  00 01 12 4E 16 11 0C D0
  can0  122   [7]  FF FE 08 93 E9 32 00
  can0  0C1   [5]  24 02 24 00 B5
  can0  121   [8]  00 01 12 4E 16 11 0C D0
  can0  122   [7]  FF FE 08 93 E9 32 00
  can0  0C1   [5]  25 02 24 00 B4
  can0  121   [8]  00 01 12 4E 16 11 0C D0
  can0  122   [7]  FF FE 08 93 E9 32 00
  can0  0C1   [5]  26 02 24 00 B3
  can0  0D9   [4]  7D 7C 00 18
  can0  121   [8]  00 01 12 4E 16 11 0C D0
  can0  122   [7]  FF FE 08 B3 E9 32 00
  can0  0C1   [5]  27 02 24 00 B2
  can0  121   [8]  00 01 12 4E 16 11 0C D0
  can0  122   [7]  FF FE 08 93 E9 32 00
  can0  0C1   [5]  28 02 24 00 B1
  can0  121   [8]  00 01 12 4E 16 11 0C D0
  can0  122   [7]  FF FE 08 93 E9 32 00
  can0  0C1   [5]  29 02 24 00 B0
  can0  121   [8]  00 01 12 4E 16 11 0C D0
  can0  122   [7]  FF FE 08 F3 E9 32 00
  can0  0C1   [5]  2A 02 24 00 AF
  can0  121   [8]  00 01 12 4E 16 11 0C D0
  can0  122   [7]  FF FE 08 E3 E9 32 00
  can0  0C1   [5]  2B 02 24 00 AE
  can0  121   [8]  00 01 12 4E 16 11 0C D0
  can0  122   [7]  FF FE 08 F3 E9 32 00
  can0  0C1   [5]  2C 02 24 00 AD
  can0  121   [8]  00 01 12 4E 16 11 0C D0
  can0  122   [7]  FF FE 08 93 E9 32 00
  can0  0C1   [5]  2D 02 24 00 AC
  can0  121   [8]  00 01 12 4E 16 11 0C D0
  can0  122   [7]  FF FE 08 93 E9 32 00
  can0  121   [8]  00 01 12 4E 16 11 0C D0
  can0  0C1   [5]  2E 02 24 00 AB
  can0  122   [7]  FF FE 08 93 E9 32 00
  can0  0C1   [5]  2F 02 24 00 AA
  can0  121   [8]  00 01 12 4E 16 11 0C D0
  can0  122   [7]  FF FE 09 03 E9 32 00
  can0  0C1   [5]  30 02 24 00 A9
  can0  0D9   [4]  7D 7C 00 18
  can0  121   [8]  00 01 12 4E 16 11 0C D0
  can0  122   [7]  FF FE 08 F3 E9 32 00
  can0  0C1   [5]  31 02 24 00 A8
  can0  121   [8]  00 01 12 4E 16 11 0C D0
  can0  122   [7]  FF FE 08 93 E9 32 00
  can0  121   [8]  00 01 12 4E 16 11 0C D0
  can0  0C1   [5]  32 02 24 00 A7
  can0  122   [7]  FF FE 08 93 E9 32 00
  can0  0C1   [5]  33 02 24 00 A6
  can0  121   [8]  00 01 12 4E 16 11 0C D0
  can0  122   [7]  FF FE 08 93 E9 32 00
  can0  0C1   [5]  34 02 24 00 A5
  can0  121   [8]  00 01 12 4E 16 11 0C D0
  can0  122   [7]  FF FE 08 E3 E9 32 00
  can0  0C1   [5]  35 02 24 00 A4
  can0  121   [8]  00 01 12 4E 16 11 0C D0
  can0  122   [7]  FF FE 08 93 E9 32 00
  can0  121   [8]  00 01 12 4E 16 11 0C D0
  can0  0C1   [5]  36 02 24 00 A3
  can0  122   [7]  FF FE 08 93 E9 32 00
  can0  0C1   [5]  37 02 24 00 A2
  can0  121   [8]  00 01 12 4E 16 11 0C D0
  can0  122   [7]  FF FE 08 A3 E9 32 00
  can0  0C1   [5]  38 02 24 00 A1
  can0  121   [8]  00 01 12 4E 16 11 0C D0
  can0  122   [7]  FF FE 08 93 E9 32 00
  can0  0C1   [5]  39 02 24 00 A0
  can0  121   [8]  00 01 12 4E 16 11 0C D0
  can0  122   [7]  FF FE 08 93 E9 32 00
  can0  0C1   [5]  3A 02 24 00 9F
  can0  0D9   [4]  7D 7C 00 18
  can0  121   [8]  00 01 12 4E 16 11 0C D0
  can0  122   [7]  FF FE 09 23 E9 32 00
  can0  0C1   [5]  3B 02 24 00 9E
  can0  121   [8]  00 01 12 4E 16 11 0C D0
  can0  122   [7]  FF FE 09 03 E9 32 00
  can0  121   [8]  00 01 12 4E 16 11 0C D0
  can0  0C1   [5]  3C 02 24 00 9D
  can0  122   [7]  FF FE 08 F3 E9 32 00
  can0  0C1   [5]  3D 02 24 00 9C
  can0  121   [8]  00 01 12 4E 16 11 0C D0
  can0  122   [7]  FF FE 08 93 E9 32 00
  can0  121   [8]  00 01 12 4E 16 11 0C D0
  can0  0C1   [5]  3E 02 24 00 9B
  can0  122   [7]  FF FE 08 C3 E9 32 00
  can0  0C1   [5]  3F 02 24 00 9A
  can0  121   [8]  00 01 12 4E 16 11 0C D0
  can0  122   [7]  FF FE 08 C3 E9 32 00
  can0  0C1   [5]  40 02 24 00 99
  can0  121   [8]  00 01 12 4E 16 11 0C D0
  can0  122   [7]  FF FE 08 93 E9 32 00
  can0  0C1   [5]  41 02 24 00 98
  can0  121   [8]  00 01 12 4E 16 11 0C D0
  can0  122   [7]  FF FE 08 A3 E9 32 00
  can0  0C1   [5]  42 02 24 00 97
  can0  121   [8]  00 01 12 4E 16 11 0C D0
  can0  122   [7]  FF FE 08 C3 E9 32 00
